!Agilent Technologies,E5071C,MY46214220,A.11.31
!Date: Fri Sep 22 10:44:02 2017
!Data & Calibration Information:
!Freq	S11:SOLT1(ON)
!PortZ  Port1:50+j0
!Above PortZ is port z conversion or system Z0 setting when saving the data.
!When reading, reference impedance value at option line is always used.
# Hz S dB R 50
2000000000	-2.845710e-001	-3.308560e+001
2000150008	-2.736922e-001	-3.312906e+001
2000300015	-1.655262e-001	-3.362019e+001
2000450023	-3.004240e-001	-3.313781e+001
2000600030	-1.819044e-001	-3.345840e+001
2000750038	-3.033244e-001	-3.315637e+001
2000900045	-2.832844e-001	-3.322219e+001
2001050053	-1.678456e-001	-3.364908e+001
2001200060	-2.686376e-001	-3.311995e+001
2001350068	-2.185311e-001	-3.332082e+001
2001500075	-1.938279e-001	-3.343655e+001
2001650083	-3.472266e-001	-3.337876e+001
2001800090	-3.230614e-001	-3.320276e+001
2001950098	-2.691514e-001	-3.316252e+001
2002100105	-3.154956e-001	-3.318852e+001
2002250113	-1.834461e-001	-3.342278e+001
2002400120	-2.426223e-001	-3.308515e+001
2002550128	-1.934338e-001	-3.329764e+001
2002700135	-2.856072e-001	-3.315141e+001
2002850143	-2.684593e-001	-3.311760e+001
2003000150	-2.760659e-001	-3.311270e+001
2003150158	-2.705521e-001	-3.309482e+001
2003300165	-2.179347e-001	-3.323716e+001
2003450173	-2.887178e-001	-3.313626e+001
2003600180	-1.738067e-001	-3.371724e+001
2003750188	-2.750934e-001	-3.334449e+001
2003900195	-2.750311e-001	-3.312695e+001
2004050203	-3.234304e-001	-3.330130e+001
2004200210	-2.359542e-001	-3.320808e+001
2004350218	-2.025460e-001	-3.335815e+001
2004500225	-3.193934e-001	-3.340309e+001
2004650233	-2.029213e-001	-3.364161e+001
2004800240	-2.146910e-001	-3.368974e+001
2004950248	-3.281623e-001	-3.335810e+001
2005100255	-3.519953e-001	-3.355356e+001
2005250263	-2.254298e-001	-3.351537e+001
2005400270	-2.165989e-001	-3.333785e+001
2005550278	-3.005091e-001	-3.344478e+001
2005700285	-3.028955e-001	-3.345279e+001
2005850293	-1.726638e-001	-3.390960e+001
2006000300	-2.962420e-001	-3.350970e+001
2006150308	-3.510986e-001	-3.357799e+001
2006300315	-3.046086e-001	-3.340547e+001
2006450323	-1.925943e-001	-3.358657e+001
2006600330	-1.982841e-001	-3.363639e+001
2006750338	-2.965198e-001	-3.333099e+001
2006900345	-1.774975e-001	-3.400022e+001
2007050353	-1.850594e-001	-3.378116e+001
2007200360	-2.698640e-001	-3.355044e+001
2007350368	-3.548842e-001	-3.360776e+001
2007500375	-3.220903e-001	-3.346575e+001
2007650383	-2.187768e-001	-3.376242e+001
2007800390	-2.422056e-001	-3.357210e+001
2007950398	-2.333582e-001	-3.361268e+001
2008100405	-1.799153e-001	-3.405065e+001
2008250413	-1.875297e-001	-3.377688e+001
2008400420	-3.380764e-001	-3.363554e+001
2008550428	-2.887997e-001	-3.356224e+001
2008700435	-1.911000e-001	-3.369790e+001
2008850443	-3.152849e-001	-3.368005e+001
2009000450	-3.079786e-001	-3.369287e+001
2009150458	-1.997997e-001	-3.391147e+001
2009300465	-3.384156e-001	-3.367421e+001
2009450473	-2.995285e-001	-3.353251e+001
2009600480	-3.521124e-001	-3.369420e+001
2009750488	-3.237049e-001	-3.367124e+001
2009900495	-2.342168e-001	-3.372619e+001
2010050503	-3.526585e-001	-3.371852e+001
2010200510	-1.916292e-001	-3.407925e+001
2010350518	-2.193490e-001	-3.390733e+001
2010500525	-3.597624e-001	-3.377201e+001
2010650533	-2.495489e-001	-3.378024e+001
2010800540	-2.507546e-001	-3.378498e+001
2010950548	-2.871633e-001	-3.370138e+001
2011100555	-2.992912e-001	-3.374707e+001
2011250563	-2.681550e-001	-3.371796e+001
2011400570	-2.175057e-001	-3.379902e+001
2011550578	-2.270003e-001	-3.368487e+001
2011700585	-3.557132e-001	-3.382632e+001
2011850593	-2.458238e-001	-3.391756e+001
2012000600	-2.157206e-001	-3.399907e+001
2012150608	-3.675172e-001	-3.390609e+001
2012300615	-2.382499e-001	-3.408632e+001
2012450623	-2.770322e-001	-3.401716e+001
2012600630	-3.455578e-001	-3.385654e+001
2012750638	-2.100569e-001	-3.380544e+001
2012900645	-3.498140e-001	-3.383672e+001
2013050653	-3.345773e-001	-3.381046e+001
2013200660	-2.154619e-001	-3.405953e+001
2013350668	-3.673832e-001	-3.396669e+001
2013500675	-2.165076e-001	-3.416811e+001
2013650683	-2.267120e-001	-3.412917e+001
2013800690	-3.672116e-001	-3.397672e+001
2013950698	-2.256402e-001	-3.402542e+001
2014100705	-2.838656e-001	-3.401939e+001
2014250713	-3.285361e-001	-3.389698e+001
2014400720	-1.859383e-001	-3.429924e+001
2014550728	-1.891176e-001	-3.427278e+001
2014700735	-3.224092e-001	-3.378834e+001
2014850743	-1.896196e-001	-3.419998e+001
2015000750	-3.409449e-001	-3.394954e+001
2015150758	-2.544396e-001	-3.405426e+001
2015300765	-1.893029e-001	-3.437446e+001
2015450773	-3.624180e-001	-3.399041e+001
2015600780	-2.506926e-001	-3.419667e+001
2015750788	-2.288125e-001	-3.428734e+001
2015900795	-3.665227e-001	-3.402424e+001
2016050803	-2.580173e-001	-3.371730e+001
2016200810	-3.179323e-001	-3.393521e+001
2016350818	-3.571329e-001	-3.403189e+001
2016500825	-1.916570e-001	-3.433451e+001
2016650833	-3.670103e-001	-3.405470e+001
2016800840	-2.802918e-001	-3.418207e+001
2016950848	-1.885845e-001	-3.447481e+001
2017100855	-3.650800e-001	-3.408333e+001
2017250863	-2.779004e-001	-3.417134e+001
2017400870	-2.290634e-001	-3.422921e+001
2017550878	-3.641663e-001	-3.405957e+001
2017700885	-1.987045e-001	-3.427548e+001
2017850893	-1.992745e-001	-3.441454e+001
2018000900	-3.673932e-001	-3.410287e+001
2018150908	-1.988678e-001	-3.442856e+001
2018300915	-3.391989e-001	-3.409683e+001
2018450923	-2.912535e-001	-3.416632e+001
2018600930	-1.887364e-001	-3.452749e+001
2018750938	-3.543800e-001	-3.411112e+001
2018900945	-2.507108e-001	-3.428930e+001
2019050953	-2.318661e-001	-3.440046e+001
2019200960	-3.704074e-001	-3.419213e+001
2019350968	-2.337455e-001	-3.418594e+001
2019500975	-2.889875e-001	-3.409630e+001
2019650983	-3.683647e-001	-3.416923e+001
2019800990	-2.187183e-001	-3.424045e+001
2019950998	-3.692603e-001	-3.421043e+001
2020101005	-2.734362e-001	-3.428221e+001
2020251013	-1.941053e-001	-3.448858e+001
2020401020	-3.700477e-001	-3.420092e+001
2020551028	-3.160079e-001	-3.410968e+001
2020701035	-2.351056e-001	-3.424470e+001
2020851043	-3.664818e-001	-3.420112e+001
2021001050	-3.006090e-001	-3.403103e+001
2021151058	-1.942374e-001	-3.440418e+001
2021301065	-3.421023e-001	-3.413156e+001
2021451073	-1.853392e-001	-3.457190e+001
2021601080	-3.274679e-001	-3.417925e+001
2021751088	-3.052313e-001	-3.424996e+001
2021901095	-1.882118e-001	-3.466829e+001
2022051103	-3.279857e-001	-3.425145e+001
2022201110	-2.762172e-001	-3.433534e+001
2022351118	-2.103873e-001	-3.448276e+001
2022501125	-3.599417e-001	-3.420151e+001
2022651133	-2.056383e-001	-3.424495e+001
2022801140	-2.989982e-001	-3.410818e+001
2022951148	-3.368100e-001	-3.424879e+001
2023101155	-2.065887e-001	-3.450738e+001
2023251163	-3.683732e-001	-3.428656e+001
2023401170	-2.119750e-001	-3.448541e+001
2023551178	-2.472799e-001	-3.432601e+001
2023701185	-3.699454e-001	-3.429982e+001
2023851193	-2.381973e-001	-3.436325e+001
2024001200	-2.867543e-001	-3.438833e+001
2024151208	-3.378682e-001	-3.421544e+001
2024301215	-1.848952e-001	-3.447827e+001
2024451223	-3.361166e-001	-3.422254e+001
2024601230	-3.170109e-001	-3.429976e+001
2024751238	-2.040421e-001	-3.460334e+001
2024901245	-3.669216e-001	-3.432774e+001
2025051253	-2.352151e-001	-3.441050e+001
2025201260	-1.991234e-001	-3.463997e+001
2025351268	-3.685210e-001	-3.431957e+001
2025501275	-2.229381e-001	-3.456680e+001
2025651283	-2.526422e-001	-3.450329e+001
2025801290	-3.272714e-001	-3.431061e+001
2025951298	-1.820470e-001	-3.469020e+001
2026101305	-3.446063e-001	-3.433312e+001
2026251313	-3.134138e-001	-3.438555e+001
2026401320	-2.040332e-001	-3.468004e+001
2026551328	-3.676228e-001	-3.434001e+001
2026701335	-2.179919e-001	-3.456579e+001
2026851343	-2.330008e-001	-3.455274e+001
2027001350	-3.679952e-001	-3.438346e+001
2027151358	-2.609286e-001	-3.451095e+001
2027301365	-3.058227e-001	-3.441922e+001
2027451373	-3.462852e-001	-3.432424e+001
2027601380	-1.837123e-001	-3.473385e+001
2027751388	-2.759667e-001	-3.446768e+001
2027901395	-3.306405e-001	-3.435890e+001
2028051403	-1.835397e-001	-3.477241e+001
2028201410	-3.479734e-001	-3.437100e+001
2028351418	-2.704572e-001	-3.439455e+001
2028501425	-1.828468e-001	-3.470808e+001
2028651433	-3.604967e-001	-3.434650e+001
2028801440	-2.171592e-001	-3.457885e+001
2028951448	-2.494706e-001	-3.457742e+001
2029101455	-3.655099e-001	-3.440088e+001
2029251463	-1.868572e-001	-3.466289e+001
2029401470	-2.877128e-001	-3.447152e+001
2029551478	-3.274902e-001	-3.436359e+001
2029701485	-1.839481e-001	-3.474940e+001
2029851493	-3.529119e-001	-3.429584e+001
2030001500	-2.107628e-001	-3.461910e+001
2030151508	-2.094561e-001	-3.464726e+001
2030301515	-3.671070e-001	-3.441586e+001
2030451523	-2.646848e-001	-3.452199e+001
2030601530	-2.550962e-001	-3.454926e+001
2030751538	-3.650905e-001	-3.440157e+001
2030901545	-2.331694e-001	-3.444553e+001
2031051553	-2.092475e-001	-3.456604e+001
2031201560	-3.545712e-001	-3.435431e+001
2031351568	-2.050051e-001	-3.457788e+001
2031501575	-3.671141e-001	-3.443349e+001
2031651583	-2.541801e-001	-3.449090e+001
2031801590	-1.968425e-001	-3.470728e+001
2031951598	-3.632032e-001	-3.442426e+001
2032101605	-2.483787e-001	-3.453691e+001
2032251613	-2.252850e-001	-3.463071e+001
2032401620	-3.597443e-001	-3.440179e+001
2032551628	-2.360389e-001	-3.418696e+001
2032701635	-2.865569e-001	-3.412182e+001
2032851643	-3.451981e-001	-3.434860e+001
2033001650	-2.256141e-001	-3.432063e+001
2033151658	-3.562842e-001	-3.436822e+001
2033301665	-1.893032e-001	-3.450865e+001
2033451673	-2.180459e-001	-3.428270e+001
2033601680	-3.522675e-001	-3.435661e+001
2033751688	-2.633051e-001	-3.429789e+001
2033901695	-2.858958e-001	-3.440184e+001
2034051703	-3.638126e-001	-3.444010e+001
2034201710	-3.610049e-001	-3.441194e+001
2034351718	-1.857154e-001	-3.457489e+001
2034501725	-3.321942e-001	-3.426151e+001
2034651733	-3.274750e-001	-3.421959e+001
2034801740	-3.476930e-001	-3.435519e+001
2034951748	-2.755612e-001	-3.414202e+001
2035101755	-3.023078e-001	-3.420928e+001
2035251763	-3.234127e-001	-3.432193e+001
2035401770	-2.691877e-001	-3.444359e+001
2035551778	-2.221439e-001	-3.447503e+001
2035701785	-2.366594e-001	-3.431632e+001
2035851793	-2.495870e-001	-3.428694e+001
2036001800	-2.920745e-001	-3.410526e+001
2036151808	-2.697865e-001	-3.427278e+001
2036301815	-2.354680e-001	-3.437493e+001
2036451823	-2.890422e-001	-3.439114e+001
2036601830	-1.927878e-001	-3.457888e+001
2036751838	-2.610733e-001	-3.419719e+001
2036901845	-2.803828e-001	-3.431819e+001
2037051853	-2.780947e-001	-3.426769e+001
2037201860	-2.102601e-001	-3.423817e+001
2037351868	-2.196542e-001	-3.416632e+001
2037501875	-3.489791e-001	-3.430617e+001
2037651883	-2.097598e-001	-3.436244e+001
2037801890	-1.793693e-001	-3.453748e+001
2037951898	-2.686137e-001	-3.409225e+001
2038101905	-3.042329e-001	-3.411145e+001
2038251913	-2.199348e-001	-3.416362e+001
2038401920	-2.185293e-001	-3.424254e+001
2038551928	-2.292701e-001	-3.413276e+001
2038701935	-2.051797e-001	-3.433288e+001
2038851943	-1.764540e-001	-3.464608e+001
2039001950	-1.749982e-001	-3.446112e+001
2039151958	-3.428783e-001	-3.429548e+001
2039301965	-2.481264e-001	-3.431016e+001
2039451973	-1.729096e-001	-3.470569e+001
2039601980	-2.940552e-001	-3.420138e+001
2039751988	-2.296363e-001	-3.439497e+001
2039901995	-1.804773e-001	-3.465999e+001
2040052003	-3.103982e-001	-3.413875e+001
2040202010	-2.012229e-001	-3.426796e+001
2040352018	-3.377058e-001	-3.413135e+001
2040502025	-3.247799e-001	-3.413398e+001
2040652033	-1.906144e-001	-3.440728e+001
2040802040	-3.573140e-001	-3.429256e+001
2040952048	-2.057445e-001	-3.446608e+001
2041102055	-2.038748e-001	-3.444457e+001
2041252063	-3.529436e-001	-3.427090e+001
2041402070	-2.434231e-001	-3.437545e+001
2041552078	-2.142238e-001	-3.443537e+001
2041702085	-3.524315e-001	-3.425788e+001
2041852093	-3.261683e-001	-3.407262e+001
2042002100	-1.833573e-001	-3.433649e+001
2042152108	-2.445197e-001	-3.421404e+001
2042302115	-1.949456e-001	-3.425937e+001
2042452123	-2.901709e-001	-3.416851e+001
2042602130	-2.785945e-001	-3.408491e+001
2042752138	-1.611728e-001	-3.453691e+001
2042902145	-2.406700e-001	-3.425880e+001
2043052153	-2.303540e-001	-3.413711e+001
2043202160	-1.696494e-001	-3.453165e+001
2043352168	-2.626003e-001	-3.396469e+001
2043502175	-2.505997e-001	-3.396825e+001
2043652183	-2.233862e-001	-3.404664e+001
2043802190	-2.136951e-001	-3.400509e+001
2043952198	-2.343211e-001	-3.388165e+001
2044102205	-2.783181e-001	-3.388984e+001
2044252213	-1.636243e-001	-3.437796e+001
2044402220	-1.912295e-001	-3.408235e+001
2044552228	-2.395096e-001	-3.385515e+001
2044702235	-1.900120e-001	-3.402828e+001
2044852243	-2.097653e-001	-3.391023e+001
2045002250	-2.090220e-001	-3.391866e+001
2045152258	-2.311251e-001	-3.388270e+001
2045302265	-2.063200e-001	-3.400608e+001
2045452273	-1.493219e-001	-3.446909e+001
2045602280	-1.760006e-001	-3.412753e+001
2045752288	-2.648749e-001	-3.386170e+001
2045902295	-1.609545e-001	-3.427638e+001
2046052303	-1.584005e-001	-3.417865e+001
2046202310	-2.292628e-001	-3.386812e+001
2046352318	-1.937631e-001	-3.412194e+001
2046502325	-1.481635e-001	-3.440451e+001
2046652333	-1.699165e-001	-3.412475e+001
2046802340	-1.825562e-001	-3.415053e+001
2046952348	-2.840678e-001	-3.387403e+001
2047102355	-1.766360e-001	-3.411161e+001
2047252363	-1.559574e-001	-3.432604e+001
2047402370	-2.956903e-001	-3.396099e+001
2047552378	-1.460162e-001	-3.445609e+001
2047702385	-1.669188e-001	-3.414560e+001
2047852393	-2.065881e-001	-3.383068e+001
2048002400	-1.618793e-001	-3.410678e+001
2048152408	-1.828833e-001	-3.397812e+001
2048302415	-1.778132e-001	-3.400382e+001
2048452423	-1.990087e-001	-3.399700e+001
2048602430	-1.862129e-001	-3.402775e+001
2048752438	-1.382705e-001	-3.447764e+001
2048902445	-1.915779e-001	-3.394101e+001
2049052453	-2.644566e-001	-3.388133e+001
2049202460	-1.390822e-001	-3.442018e+001
2049352468	-1.960438e-001	-3.386330e+001
2049502475	-1.699212e-001	-3.394828e+001
2049652483	-1.370557e-001	-3.447288e+001
2049802490	-1.580934e-001	-3.421732e+001
2049952498	-1.706519e-001	-3.406418e+001
2050102505	-1.604637e-001	-3.422339e+001
2050252513	-2.746875e-001	-3.388927e+001
2050402520	-1.378046e-001	-3.443444e+001
2050552528	-1.912439e-001	-3.430721e+001
2050702535	-2.815128e-001	-3.413492e+001
2050852543	-1.346028e-001	-3.454092e+001
2051002550	-2.739893e-001	-3.416288e+001
2051152558	-2.248155e-001	-3.405079e+001
2051302565	-1.567850e-001	-3.413990e+001
2051452573	-2.795506e-001	-3.385816e+001
2051602580	-1.615656e-001	-3.426050e+001
2051752588	-1.695104e-001	-3.416109e+001
2051902595	-2.475215e-001	-3.381191e+001
2052052603	-1.312294e-001	-3.434492e+001
2052202610	-1.721619e-001	-3.427132e+001
2052352618	-2.964337e-001	-3.396145e+001
2052502625	-1.509403e-001	-3.405480e+001
2052652633	-1.996692e-001	-3.378498e+001
2052802640	-1.315502e-001	-3.428166e+001
2052952648	-1.388519e-001	-3.410359e+001
2053102655	-1.798960e-001	-3.401345e+001
2053252663	-1.798509e-001	-3.408906e+001
2053402670	-1.556903e-001	-3.415287e+001
2053552678	-3.045304e-001	-3.405147e+001
2053702685	-1.450032e-001	-3.420715e+001
2053852693	-1.394938e-001	-3.433478e+001
2054002700	-2.782352e-001	-3.401195e+001
2054152708	-1.285663e-001	-3.447017e+001
2054302715	-1.897724e-001	-3.402282e+001
2054452723	-2.478446e-001	-3.376125e+001
2054602730	-2.624622e-001	-3.382199e+001
2054752738	-2.699404e-001	-3.393889e+001
2054902745	-1.295473e-001	-3.441971e+001
2055052753	-2.449831e-001	-3.411697e+001
2055202760	-2.367226e-001	-3.413206e+001
2055352768	-1.290360e-001	-3.448641e+001
2055502775	-1.828789e-001	-3.420536e+001
2055652783	-3.034454e-001	-3.404006e+001
2055802790	-1.586833e-001	-3.407820e+001
2055952798	-2.056266e-001	-3.383570e+001
2056102805	-1.441005e-001	-3.414638e+001
2056252813	-2.577839e-001	-3.378552e+001
2056402820	-1.574816e-001	-3.392369e+001
2056552828	-1.564793e-001	-3.402644e+001
2056702835	-2.625678e-001	-3.390188e+001
2056852843	-2.783172e-001	-3.402209e+001
2057002850	-1.243959e-001	-3.435427e+001
2057152858	-2.106866e-001	-3.401945e+001
2057302865	-2.232088e-001	-3.400571e+001
2057452873	-1.289050e-001	-3.439220e+001
2057602880	-3.071151e-001	-3.406096e+001
2057752888	-1.550103e-001	-3.412943e+001
2057902895	-2.655307e-001	-3.394948e+001
2058052903	-3.100724e-001	-3.408696e+001
2058202910	-1.577404e-001	-3.412642e+001
2058352918	-2.722739e-001	-3.407973e+001
2058502925	-2.109752e-001	-3.411764e+001
2058652933	-1.325166e-001	-3.429154e+001
2058802940	-2.976306e-001	-3.400689e+001
2058952948	-2.859199e-001	-3.403551e+001
2059102955	-1.944963e-001	-3.411263e+001
2059252963	-3.076057e-001	-3.408331e+001
2059402970	-2.044849e-001	-3.385397e+001
2059552978	-2.930732e-001	-3.395668e+001
2059702985	-2.845339e-001	-3.392666e+001
2059852993	-2.079248e-001	-3.395766e+001
2060003000	-2.478713e-001	-3.402169e+001
2060153008	-2.733979e-001	-3.392602e+001
2060303015	-1.331107e-001	-3.401873e+001
2060453023	-2.362930e-001	-3.384232e+001
2060603030	-2.166436e-001	-3.408371e+001
2060753038	-1.419692e-001	-3.431758e+001
2060903045	-3.033946e-001	-3.406605e+001
2061053053	-1.361109e-001	-3.410099e+001
2061203060	-2.637047e-001	-3.398610e+001
2061353068	-2.846251e-001	-3.399255e+001
2061503075	-1.185026e-001	-3.434437e+001
2061653083	-2.910030e-001	-3.404704e+001
2061803090	-1.881671e-001	-3.419787e+001
2061953098	-1.330147e-001	-3.431321e+001
2062103105	-2.999651e-001	-3.406733e+001
2062253113	-2.550187e-001	-3.398294e+001
2062403120	-1.835549e-001	-3.401496e+001
2062553128	-2.974825e-001	-3.402684e+001
2062703135	-1.820124e-001	-3.379597e+001
2062853143	-2.921249e-001	-3.395536e+001
2063003150	-2.960310e-001	-3.398098e+001
2063153158	-1.270772e-001	-3.423374e+001
2063303165	-2.701591e-001	-3.401599e+001
2063453173	-2.216373e-001	-3.406152e+001
2063603180	-1.177108e-001	-3.427271e+001
2063753188	-2.174259e-001	-3.388834e+001
2063903195	-1.881516e-001	-3.401142e+001
2064053203	-1.151066e-001	-3.445207e+001
2064203210	-2.739116e-001	-3.393929e+001
2064353218	-1.464252e-001	-3.395184e+001
2064503225	-2.469750e-001	-3.395005e+001
2064653233	-2.891780e-001	-3.403158e+001
2064803240	-1.237174e-001	-3.426240e+001
2064953248	-2.554708e-001	-3.385399e+001
2065103255	-1.506780e-001	-3.426764e+001
2065253263	-1.745990e-001	-3.427748e+001
2065403270	-3.060108e-001	-3.411515e+001
2065553278	-2.107130e-001	-3.405879e+001
2065703285	-1.994008e-001	-3.414451e+001
2065853293	-2.714375e-001	-3.400030e+001
2066003300	-1.485506e-001	-3.399726e+001
2066153308	-2.924774e-001	-3.399939e+001
2066303315	-1.997131e-001	-3.376097e+001
2066453323	-1.368317e-001	-3.410369e+001
2066603330	-3.019018e-001	-3.410820e+001
2066753338	-1.817004e-001	-3.417141e+001
2066903345	-2.335119e-001	-3.382430e+001
2067053353	-2.416145e-001	-3.391586e+001
2067203360	-1.290961e-001	-3.419047e+001
2067353368	-1.391467e-001	-3.425313e+001
2067503375	-2.615049e-001	-3.407803e+001
2067653383	-1.152614e-001	-3.446913e+001
2067803390	-2.494050e-001	-3.401873e+001
2067953398	-2.699970e-001	-3.404019e+001
2068103405	-1.119935e-001	-3.445527e+001
2068253413	-2.198408e-001	-3.398990e+001
2068403420	-1.415133e-001	-3.427287e+001
2068553428	-1.879417e-001	-3.424353e+001
2068703435	-3.043240e-001	-3.414698e+001
2068853443	-1.766439e-001	-3.405555e+001
2069003450	-2.149629e-001	-3.420174e+001
2069153458	-2.996759e-001	-3.412555e+001
2069303465	-1.333892e-001	-3.405293e+001
2069453473	-1.340566e-001	-3.401592e+001
2069603480	-2.962052e-001	-3.411127e+001
2069753488	-1.742978e-001	-3.403732e+001
2069903495	-2.960813e-001	-3.411123e+001
2070053503	-2.292991e-001	-3.409694e+001
2070203510	-2.126178e-001	-3.403610e+001
2070353518	-3.063634e-001	-3.417754e+001
2070503525	-2.088524e-001	-3.407883e+001
2070653533	-1.154730e-001	-3.450554e+001
2070803540	-2.812443e-001	-3.402831e+001
2070953548	-1.832079e-001	-3.387933e+001
2071103555	-2.750390e-001	-3.394383e+001
2071253563	-2.583552e-001	-3.406661e+001
2071403570	-1.228728e-001	-3.426490e+001
2071553578	-2.893353e-001	-3.406205e+001
2071703585	-1.363893e-001	-3.438057e+001
2071853593	-2.327565e-001	-3.417867e+001
