!Agilent Technologies,E5071C,MY46214220,A.11.31
!Date: Fri Sep 22 10:12:18 2017
!Data & Calibration Information:
!Freq	S11:SOLT1(ON)
!PortZ  Port1:50+j0
!Above PortZ is port z conversion or system Z0 setting when saving the data.
!When reading, reference impedance value at option line is always used.
# Hz S dB R 50
2000000000	-1.444236e-001	-1.540211e+001
2000150008	-1.380335e-001	-1.541688e+001
2000300015	-8.352504e-002	-1.559081e+001
2000450023	-1.493895e-001	-1.542148e+001
2000600030	-9.020238e-002	-1.550776e+001
2000750038	-1.534056e-001	-1.543621e+001
2000900045	-1.426422e-001	-1.543867e+001
2001050053	-8.373863e-002	-1.558701e+001
2001200060	-1.335006e-001	-1.539684e+001
2001350068	-1.088576e-001	-1.545393e+001
2001500075	-9.875631e-002	-1.549586e+001
2001650083	-1.703275e-001	-1.553185e+001
2001800090	-1.601908e-001	-1.545012e+001
2001950098	-1.346758e-001	-1.540041e+001
2002100105	-1.561251e-001	-1.543887e+001
2002250113	-9.013859e-002	-1.547388e+001
2002400120	-1.243873e-001	-1.533287e+001
2002550128	-1.004674e-001	-1.543232e+001
2002700135	-1.446772e-001	-1.541159e+001
2002850143	-1.359296e-001	-1.536439e+001
2003000150	-1.375477e-001	-1.536131e+001
2003150158	-1.363749e-001	-1.535469e+001
2003300165	-1.089172e-001	-1.539488e+001
2003450173	-1.428797e-001	-1.536914e+001
2003600180	-8.470865e-002	-1.558637e+001
2003750188	-1.319775e-001	-1.545822e+001
2003900195	-1.336079e-001	-1.536859e+001
2004050203	-1.587573e-001	-1.546289e+001
2004200210	-1.154642e-001	-1.538694e+001
2004350218	-1.020032e-001	-1.542427e+001
2004500225	-1.509907e-001	-1.550823e+001
2004650233	-9.724666e-002	-1.555154e+001
2004800240	-1.045854e-001	-1.557720e+001
2004950248	-1.585428e-001	-1.548350e+001
2005100255	-1.661277e-001	-1.559612e+001
2005250263	-1.092256e-001	-1.551079e+001
2005400270	-1.076794e-001	-1.542091e+001
2005550278	-1.438930e-001	-1.549826e+001
2005700285	-1.443979e-001	-1.551321e+001
2005850293	-8.170286e-002	-1.564995e+001
2006000300	-1.435172e-001	-1.554123e+001
2006150308	-1.670596e-001	-1.559120e+001
2006300315	-1.456547e-001	-1.547033e+001
2006450323	-9.088412e-002	-1.551237e+001
2006600330	-9.531624e-002	-1.554345e+001
2006750338	-1.429350e-001	-1.544199e+001
2006900345	-8.234861e-002	-1.568696e+001
2007050353	-8.719116e-002	-1.558403e+001
2007200360	-1.283088e-001	-1.553990e+001
2007350368	-1.687148e-001	-1.558651e+001
2007500375	-1.528388e-001	-1.551739e+001
2007650383	-1.022549e-001	-1.560555e+001
2007800390	-1.143483e-001	-1.552497e+001
2007950398	-1.104587e-001	-1.551372e+001
2008100405	-8.087415e-002	-1.569366e+001
2008250413	-8.818017e-002	-1.558231e+001
2008400420	-1.544676e-001	-1.557933e+001
2008550428	-1.345158e-001	-1.553405e+001
2008700435	-9.120611e-002	-1.554157e+001
2008850443	-1.468478e-001	-1.558575e+001
2009000450	-1.421581e-001	-1.559732e+001
2009150458	-9.073425e-002	-1.565045e+001
2009300465	-1.556576e-001	-1.558833e+001
2009450473	-1.397403e-001	-1.550819e+001
2009600480	-1.625623e-001	-1.560375e+001
2009750488	-1.516723e-001	-1.558683e+001
2009900495	-1.089891e-001	-1.558794e+001
2010050503	-1.625374e-001	-1.561095e+001
2010200510	-8.161820e-002	-1.570966e+001
2010350518	-9.880008e-002	-1.563806e+001
2010500525	-1.648248e-001	-1.565318e+001
2010650533	-1.155718e-001	-1.559081e+001
2010800540	-1.150625e-001	-1.560256e+001
2010950548	-1.332368e-001	-1.555875e+001
2011100555	-1.387530e-001	-1.558629e+001
2011250563	-1.243418e-001	-1.557433e+001
2011400570	-1.000295e-001	-1.558408e+001
2011550578	-1.052443e-001	-1.552681e+001
2011700585	-1.635838e-001	-1.565705e+001
2011850593	-1.128999e-001	-1.564659e+001
2012000600	-9.518671e-002	-1.566954e+001
2012150608	-1.658778e-001	-1.570582e+001
2012300615	-1.058267e-001	-1.572778e+001
2012450623	-1.255095e-001	-1.570379e+001
2012600630	-1.583466e-001	-1.565201e+001
2012750638	-9.557183e-002	-1.557316e+001
2012900645	-1.601567e-001	-1.565413e+001
2013050653	-1.514157e-001	-1.563191e+001
2013200660	-9.562568e-002	-1.569518e+001
2013350668	-1.666284e-001	-1.572518e+001
2013500675	-9.431056e-002	-1.574609e+001
2013650683	-1.004206e-001	-1.571322e+001
2013800690	-1.680759e-001	-1.571922e+001
2013950698	-1.005296e-001	-1.567604e+001
2014100705	-1.263392e-001	-1.571273e+001
2014250713	-1.486640e-001	-1.567015e+001
2014400720	-8.023843e-002	-1.578357e+001
2014550728	-7.995647e-002	-1.576272e+001
2014700735	-1.497493e-001	-1.561068e+001
2014850743	-8.417205e-002	-1.572888e+001
2015000750	-1.551753e-001	-1.570320e+001
2015150758	-1.148490e-001	-1.570311e+001
2015300765	-7.942919e-002	-1.580451e+001
2015450773	-1.649507e-001	-1.570786e+001
2015600780	-1.105705e-001	-1.574743e+001
2015750788	-9.718505e-002	-1.578238e+001
2015900795	-1.652491e-001	-1.574763e+001
2016050803	-1.196671e-001	-1.552932e+001
2016200810	-1.442350e-001	-1.567796e+001
2016350818	-1.628297e-001	-1.573391e+001
2016500825	-8.247683e-002	-1.579064e+001
2016650833	-1.650371e-001	-1.575175e+001
2016800840	-1.241411e-001	-1.575746e+001
2016950848	-7.764791e-002	-1.586174e+001
2017100855	-1.660822e-001	-1.574516e+001
2017250863	-1.238553e-001	-1.576785e+001
2017400870	-1.009588e-001	-1.577257e+001
2017550878	-1.644020e-001	-1.574490e+001
2017700885	-8.769502e-002	-1.576062e+001
2017850893	-8.624757e-002	-1.582106e+001
2018000900	-1.666992e-001	-1.575770e+001
2018150908	-8.689935e-002	-1.583599e+001
2018300915	-1.526009e-001	-1.574961e+001
2018450923	-1.304754e-001	-1.575767e+001
2018600930	-7.813360e-002	-1.587130e+001
2018750938	-1.606200e-001	-1.576935e+001
2018900945	-1.116347e-001	-1.578922e+001
2019050953	-1.020714e-001	-1.583335e+001
2019200960	-1.673272e-001	-1.579905e+001
2019350968	-1.041698e-001	-1.573517e+001
2019500975	-1.314914e-001	-1.572046e+001
2019650983	-1.661366e-001	-1.578780e+001
2019800990	-9.663039e-002	-1.576042e+001
2019950998	-1.666528e-001	-1.582046e+001
2020101005	-1.209410e-001	-1.578923e+001
2020251013	-8.171971e-002	-1.585275e+001
2020401020	-1.663412e-001	-1.582292e+001
2020551028	-1.439539e-001	-1.573805e+001
2020701035	-1.040151e-001	-1.576878e+001
2020851043	-1.658144e-001	-1.580407e+001
2021001050	-1.355923e-001	-1.570553e+001
2021151058	-8.445372e-002	-1.580788e+001
2021301065	-1.560620e-001	-1.575665e+001
2021451073	-7.766901e-002	-1.587916e+001
2021601080	-1.480614e-001	-1.577474e+001
2021751088	-1.375963e-001	-1.579258e+001
2021901095	-7.841871e-002	-1.593081e+001
2022051103	-1.473725e-001	-1.581261e+001
2022201110	-1.224509e-001	-1.582045e+001
2022351118	-9.165282e-002	-1.585340e+001
2022501125	-1.645016e-001	-1.581430e+001
2022651133	-9.244626e-002	-1.573086e+001
2022801140	-1.367620e-001	-1.572467e+001
2022951148	-1.535345e-001	-1.581348e+001
2023101155	-8.959813e-002	-1.588288e+001
2023251163	-1.659023e-001	-1.585463e+001
2023401170	-9.081529e-002	-1.585987e+001
2023551178	-1.094900e-001	-1.580317e+001
2023701185	-1.662396e-001	-1.585780e+001
2023851193	-1.049957e-001	-1.581697e+001
2024001200	-1.271780e-001	-1.584579e+001
2024151208	-1.515353e-001	-1.579745e+001
2024301215	-7.978258e-002	-1.583118e+001
2024451223	-1.513193e-001	-1.580297e+001
2024601230	-1.434925e-001	-1.582622e+001
2024751238	-8.935172e-002	-1.591196e+001
2024901245	-1.653981e-001	-1.585734e+001
2025051253	-1.041018e-001	-1.583836e+001
2025201260	-8.514560e-002	-1.591782e+001
2025351268	-1.666039e-001	-1.587077e+001
2025501275	-9.524527e-002	-1.590193e+001
2025651283	-1.109942e-001	-1.588810e+001
2025801290	-1.457867e-001	-1.582704e+001
2025951298	-7.674451e-002	-1.594499e+001
2026101305	-1.556978e-001	-1.585470e+001
2026251313	-1.400244e-001	-1.587365e+001
2026401320	-8.704678e-002	-1.596092e+001
2026551328	-1.652559e-001	-1.588355e+001
2026701335	-9.377778e-002	-1.590211e+001
2026851343	-1.025898e-001	-1.589884e+001
2027001350	-1.654525e-001	-1.589611e+001
2027151358	-1.144598e-001	-1.590745e+001
2027301365	-1.381769e-001	-1.588657e+001
2027451373	-1.572754e-001	-1.586455e+001
2027601380	-7.731041e-002	-1.596039e+001
2027751388	-1.217329e-001	-1.590040e+001
2027901395	-1.483845e-001	-1.587532e+001
2028051403	-7.603632e-002	-1.598826e+001
2028201410	-1.558652e-001	-1.589173e+001
2028351418	-1.222524e-001	-1.586230e+001
2028501425	-7.813527e-002	-1.596864e+001
2028651433	-1.650171e-001	-1.587434e+001
2028801440	-9.374085e-002	-1.592801e+001
2028951448	-1.089406e-001	-1.594217e+001
2029101455	-1.660935e-001	-1.591881e+001
2029251463	-7.984399e-002	-1.595206e+001
2029401470	-1.292813e-001	-1.592002e+001
2029551478	-1.475116e-001	-1.587452e+001
2029701485	-7.964678e-002	-1.598617e+001
2029851493	-1.612189e-001	-1.586777e+001
2030001500	-9.066735e-002	-1.593512e+001
2030151508	-8.850473e-002	-1.595954e+001
2030301515	-1.656151e-001	-1.592753e+001
2030451523	-1.168078e-001	-1.592825e+001
2030601530	-1.122912e-001	-1.593343e+001
2030751538	-1.669246e-001	-1.592738e+001
2030901545	-1.029991e-001	-1.588352e+001
2031051553	-9.190948e-002	-1.593177e+001
2031201560	-1.621304e-001	-1.590583e+001
2031351568	-8.875681e-002	-1.593694e+001
2031501575	-1.687463e-001	-1.594170e+001
2031651583	-1.138845e-001	-1.591882e+001
2031801590	-8.553099e-002	-1.599160e+001
2031951598	-1.658115e-001	-1.593994e+001
2032101605	-1.104848e-001	-1.594578e+001
2032251613	-9.646660e-002	-1.598130e+001
2032401620	-1.630874e-001	-1.593008e+001
2032551628	-1.075333e-001	-1.576856e+001
2032701635	-1.341321e-001	-1.576917e+001
2032851643	-1.574046e-001	-1.590422e+001
2033001650	-1.002030e-001	-1.584010e+001
2033151658	-1.623265e-001	-1.591710e+001
2033301665	-8.307641e-002	-1.589603e+001
2033451673	-9.917559e-002	-1.582048e+001
2033601680	-1.598697e-001	-1.593431e+001
2033751688	-1.192576e-001	-1.584101e+001
2033901695	-1.291791e-001	-1.590717e+001
2034051703	-1.638815e-001	-1.597418e+001
2034201710	-1.632801e-001	-1.594395e+001
2034351718	-8.126292e-002	-1.594755e+001
2034501725	-1.533070e-001	-1.587608e+001
2034651733	-1.517851e-001	-1.584770e+001
2034801740	-1.579959e-001	-1.592309e+001
2034951748	-1.283986e-001	-1.579005e+001
2035101755	-1.391076e-001	-1.584382e+001
2035251763	-1.481123e-001	-1.590436e+001
2035401770	-1.209757e-001	-1.593210e+001
2035551778	-9.828893e-002	-1.593178e+001
2035701785	-1.063915e-001	-1.587421e+001
2035851793	-1.126478e-001	-1.586351e+001
2036001800	-1.341193e-001	-1.580059e+001
2036151808	-1.220906e-001	-1.586499e+001
2036301815	-1.051902e-001	-1.590166e+001
2036451823	-1.291352e-001	-1.593591e+001
2036601830	-8.383333e-002	-1.598294e+001
2036751838	-1.196776e-001	-1.583089e+001
2036901845	-1.261629e-001	-1.589982e+001
2037051853	-1.267275e-001	-1.588743e+001
2037201860	-9.469137e-002	-1.584634e+001
2037351868	-1.004804e-001	-1.581200e+001
2037501875	-1.592143e-001	-1.594159e+001
2037651883	-9.477662e-002	-1.589766e+001
2037801890	-7.784671e-002	-1.597588e+001
2037951898	-1.229003e-001	-1.581913e+001
2038101905	-1.399018e-001	-1.584598e+001
2038251913	-1.015864e-001	-1.582305e+001
2038401920	-9.876731e-002	-1.587675e+001
2038551928	-1.060603e-001	-1.582014e+001
2038701935	-9.172241e-002	-1.590326e+001
2038851943	-7.625804e-002	-1.603330e+001
2039001950	-7.636411e-002	-1.596105e+001
2039151958	-1.559664e-001	-1.596407e+001
2039301965	-1.125495e-001	-1.592918e+001
2039451973	-7.385647e-002	-1.608153e+001
2039601980	-1.356285e-001	-1.591514e+001
2039751988	-1.023762e-001	-1.596766e+001
2039901995	-7.800620e-002	-1.607072e+001
2040052003	-1.441399e-001	-1.590320e+001
2040202010	-9.194085e-002	-1.591051e+001
2040352018	-1.571627e-001	-1.591194e+001
2040502025	-1.510404e-001	-1.590445e+001
2040652033	-8.581948e-002	-1.596989e+001
2040802040	-1.647868e-001	-1.600569e+001
2040952048	-9.317749e-002	-1.600861e+001
2041102055	-9.365672e-002	-1.600879e+001
2041252063	-1.636610e-001	-1.598892e+001
2041402070	-1.125335e-001	-1.599365e+001
2041552078	-9.852233e-002	-1.601123e+001
2041702085	-1.663509e-001	-1.599213e+001
2041852093	-1.553429e-001	-1.590359e+001
2042002100	-8.572137e-002	-1.595844e+001
2042152108	-1.161550e-001	-1.593325e+001
2042302115	-9.216417e-002	-1.593852e+001
2042452123	-1.384875e-001	-1.594522e+001
2042602130	-1.336876e-001	-1.589762e+001
2042752138	-7.475790e-002	-1.604398e+001
2042902145	-1.147535e-001	-1.596803e+001
2043052153	-1.115338e-001	-1.591630e+001
2043202160	-7.854313e-002	-1.606213e+001
2043352168	-1.289381e-001	-1.584373e+001
2043502175	-1.230345e-001	-1.584575e+001
2043652183	-1.104754e-001	-1.586573e+001
2043802190	-1.075524e-001	-1.585000e+001
2043952198	-1.190155e-001	-1.580305e+001
2044102205	-1.376954e-001	-1.582186e+001
2044252213	-8.148051e-002	-1.601015e+001
2044402220	-9.541279e-002	-1.587656e+001
2044552228	-1.210465e-001	-1.579931e+001
2044702235	-9.694323e-002	-1.585532e+001
2044852243	-1.073718e-001	-1.581376e+001
2045002250	-1.082810e-001	-1.581105e+001
2045152258	-1.186583e-001	-1.579878e+001
2045302265	-1.058026e-001	-1.584946e+001
2045452273	-7.330860e-002	-1.604434e+001
2045602280	-8.990495e-002	-1.589748e+001
2045752288	-1.352477e-001	-1.581986e+001
2045902295	-8.181664e-002	-1.596383e+001
2046052303	-8.286164e-002	-1.592159e+001
2046202310	-1.192912e-001	-1.580857e+001
2046352318	-9.978569e-002	-1.591046e+001
2046502325	-7.457088e-002	-1.602098e+001
2046652333	-8.943311e-002	-1.590588e+001
2046802340	-9.453652e-002	-1.592107e+001
2046952348	-1.441761e-001	-1.584855e+001
2047102355	-9.342723e-002	-1.590196e+001
2047252363	-8.116955e-002	-1.599229e+001
2047402370	-1.497365e-001	-1.588913e+001
2047552378	-7.387713e-002	-1.605103e+001
2047702385	-8.822838e-002	-1.592904e+001
2047852393	-1.105167e-001	-1.578785e+001
2048002400	-8.590919e-002	-1.590641e+001
2048152408	-9.774448e-002	-1.585656e+001
2048302415	-9.575379e-002	-1.586553e+001
2048452423	-1.068016e-001	-1.586361e+001
2048602430	-9.946539e-002	-1.588420e+001
2048752438	-7.171256e-002	-1.605908e+001
2048902445	-1.034870e-001	-1.583907e+001
2049052453	-1.378922e-001	-1.584739e+001
2049202460	-7.424991e-002	-1.604699e+001
2049352468	-1.059702e-001	-1.582007e+001
2049502475	-9.321869e-002	-1.584977e+001
2049652483	-7.340761e-002	-1.606980e+001
2049802490	-8.315309e-002	-1.597121e+001
2049952498	-9.459809e-002	-1.590654e+001
2050102505	-8.637635e-002	-1.596698e+001
2050252513	-1.432699e-001	-1.587104e+001
2050402520	-7.299713e-002	-1.605896e+001
2050552528	-1.006840e-001	-1.602398e+001
2050702535	-1.436356e-001	-1.599190e+001
2050852543	-7.239902e-002	-1.611580e+001
2051002550	-1.387296e-001	-1.599126e+001
2051152558	-1.190924e-001	-1.592511e+001
2051302565	-8.441265e-002	-1.593992e+001
2051452573	-1.466882e-001	-1.586849e+001
2051602580	-8.696617e-002	-1.600610e+001
2051752588	-9.184271e-002	-1.596021e+001
2051902595	-1.329450e-001	-1.583832e+001
2052052603	-7.149933e-002	-1.602310e+001
2052202610	-9.257038e-002	-1.602068e+001
2052352618	-1.534747e-001	-1.592296e+001
2052502625	-8.491221e-002	-1.591735e+001
2052652633	-1.099288e-001	-1.580046e+001
2052802640	-7.288954e-002	-1.600446e+001
2052952648	-7.726568e-002	-1.593500e+001
2053102655	-9.795441e-002	-1.590948e+001
2053252663	-9.712032e-002	-1.594072e+001
2053402670	-8.737997e-002	-1.595602e+001
2053552678	-1.571455e-001	-1.598449e+001
2053702685	-8.016358e-002	-1.598366e+001
2053852693	-7.608551e-002	-1.604415e+001
2054002700	-1.447124e-001	-1.595707e+001
2054152708	-6.963336e-002	-1.610575e+001
2054302715	-1.045595e-001	-1.592430e+001
2054452723	-1.332666e-001	-1.582995e+001
2054602730	-1.393658e-001	-1.586618e+001
2054752738	-1.409568e-001	-1.592743e+001
2054902745	-7.153769e-002	-1.608552e+001
2055052753	-1.284333e-001	-1.600867e+001
2055202760	-1.244661e-001	-1.601205e+001
2055352768	-7.015398e-002	-1.612589e+001
2055502775	-9.918370e-002	-1.601649e+001
2055652783	-1.559072e-001	-1.601155e+001
2055802790	-8.792088e-002	-1.595042e+001
2055952798	-1.130634e-001	-1.586737e+001
2056102805	-8.078603e-002	-1.598139e+001
2056252813	-1.380830e-001	-1.586644e+001
2056402820	-9.096835e-002	-1.588817e+001
2056552828	-8.870137e-002	-1.592947e+001
2056702835	-1.385249e-001	-1.592131e+001
2056852843	-1.467815e-001	-1.598768e+001
2057002850	-6.874608e-002	-1.606915e+001
2057152858	-1.139552e-001	-1.595611e+001
2057302865	-1.211209e-001	-1.597007e+001
2057452873	-7.268577e-002	-1.609935e+001
2057602880	-1.578331e-001	-1.603207e+001
2057752888	-8.717425e-002	-1.599469e+001
2057902895	-1.397005e-001	-1.595330e+001
2058052903	-1.612632e-001	-1.604950e+001
2058202910	-8.743984e-002	-1.599399e+001
2058352918	-1.423264e-001	-1.603126e+001
2058502925	-1.127643e-001	-1.601815e+001
2058652933	-7.477340e-002	-1.606104e+001
2058802940	-1.544254e-001	-1.600263e+001
2058952948	-1.497507e-001	-1.602554e+001
2059102955	-1.065599e-001	-1.601363e+001
2059252963	-1.594278e-001	-1.604587e+001
2059402970	-1.127066e-001	-1.589748e+001
2059552978	-1.524352e-001	-1.598132e+001
2059702985	-1.504896e-001	-1.596871e+001
2059852993	-1.126976e-001	-1.595116e+001
2060003000	-1.331222e-001	-1.599957e+001
2060153008	-1.441109e-001	-1.596136e+001
2060303015	-7.894287e-002	-1.594909e+001
2060453023	-1.289181e-001	-1.590441e+001
2060603030	-1.180416e-001	-1.599990e+001
2060753038	-7.915780e-002	-1.608315e+001
2060903045	-1.581540e-001	-1.605132e+001
2061053053	-7.825712e-002	-1.598749e+001
2061203060	-1.400933e-001	-1.599974e+001
2061353068	-1.493648e-001	-1.599171e+001
2061503075	-6.915179e-002	-1.607994e+001
2061653083	-1.518549e-001	-1.604928e+001
2061803090	-1.031296e-001	-1.607094e+001
2061953098	-7.588474e-002	-1.609119e+001
2062103105	-1.556509e-001	-1.604872e+001
2062253113	-1.343838e-001	-1.599544e+001
2062403120	-1.044987e-001	-1.597863e+001
2062553128	-1.543451e-001	-1.604251e+001
2062703135	-1.031124e-001	-1.588378e+001
2062853143	-1.536938e-001	-1.599511e+001
2063003150	-1.563932e-001	-1.601232e+001
2063153158	-7.368035e-002	-1.606200e+001
2063303165	-1.441574e-001	-1.601979e+001
2063453173	-1.199228e-001	-1.602301e+001
2063603180	-6.924543e-002	-1.607567e+001
2063753188	-1.203508e-001	-1.593855e+001
2063903195	-1.037752e-001	-1.599352e+001
2064053203	-6.771383e-002	-1.616125e+001
2064203210	-1.465910e-001	-1.598840e+001
2064353218	-8.502170e-002	-1.592938e+001
2064503225	-1.358812e-001	-1.598369e+001
2064653233	-1.519754e-001	-1.604266e+001
2064803240	-7.221159e-002	-1.606907e+001
2064953248	-1.387644e-001	-1.594232e+001
2065103255	-8.493426e-002	-1.608813e+001
2065253263	-9.647130e-002	-1.609959e+001
2065403270	-1.586815e-001	-1.608646e+001
2065553278	-1.152775e-001	-1.602965e+001
2065703285	-1.068409e-001	-1.605927e+001
2065853293	-1.443892e-001	-1.602359e+001
2066003300	-8.498738e-002	-1.595903e+001
2066153308	-1.541705e-001	-1.602673e+001
2066303315	-1.150962e-001	-1.586899e+001
2066453323	-8.292835e-002	-1.599400e+001
2066603330	-1.573885e-001	-1.610246e+001
2066753338	-1.000883e-001	-1.605959e+001
2066903345	-1.300249e-001	-1.592399e+001
2067053353	-1.304970e-001	-1.596934e+001
2067203360	-7.682505e-002	-1.603085e+001
2067353368	-8.027402e-002	-1.607217e+001
2067503375	-1.396708e-001	-1.604865e+001
2067653383	-6.632681e-002	-1.616753e+001
2067803390	-1.357280e-001	-1.601240e+001
2067953398	-1.425731e-001	-1.603888e+001
2068103405	-6.349625e-002	-1.615850e+001
2068253413	-1.196816e-001	-1.598599e+001
2068403420	-7.989484e-002	-1.608405e+001
2068553428	-1.024078e-001	-1.608870e+001
2068703435	-1.588387e-001	-1.610752e+001
2068853443	-9.963588e-002	-1.599586e+001
2069003450	-1.179000e-001	-1.609101e+001
2069153458	-1.567443e-001	-1.609299e+001
2069303465	-7.851025e-002	-1.597542e+001
2069453473	-7.916103e-002	-1.596253e+001
2069603480	-1.551586e-001	-1.610186e+001
2069753488	-9.841236e-002	-1.598756e+001
2069903495	-1.553040e-001	-1.608166e+001
2070053503	-1.235150e-001	-1.603982e+001
2070203510	-1.165058e-001	-1.601213e+001
2070353518	-1.578016e-001	-1.611317e+001
2070503525	-1.138448e-001	-1.601773e+001
2070653533	-6.452536e-002	-1.619176e+001
2070803540	-1.467488e-001	-1.603171e+001
2070953548	-1.029645e-001	-1.591550e+001
2071103555	-1.451774e-001	-1.599023e+001
2071253563	-1.381998e-001	-1.604325e+001
2071403570	-7.237958e-002	-1.609258e+001
2071553578	-1.519104e-001	-1.606633e+001
2071703585	-7.497445e-002	-1.612231e+001
2071853593	-1.242748e-001	-1.607264e+001
