!Agilent Technologies,E5071C,MY46214220,A.11.31
!Date: Fri Sep 22 12:30:45 2017
!Data & Calibration Information:
!Freq	S11:SOLT1(ON)
!PortZ  Port1:50+j0
!Above PortZ is port z conversion or system Z0 setting when saving the data.
!When reading, reference impedance value at option line is always used.
# Hz S dB R 50
2000000000	-1.732967e+000	-3.362185e+001
2000300030	-1.639260e+000	-3.431272e+001
2000600060	-1.642678e+000	-3.412028e+001
2000900090	-1.734517e+000	-3.370405e+001
2001200120	-1.711336e+000	-3.362853e+001
2001500150	-1.658394e+000	-3.407568e+001
2001800180	-1.767518e+000	-3.362073e+001
2002100210	-1.761398e+000	-3.358566e+001
2002400240	-1.685889e+000	-3.359592e+001
2002700270	-1.729688e+000	-3.361883e+001
2003000300	-1.716558e+000	-3.358188e+001
2003300330	-1.664244e+000	-3.379338e+001
2003600360	-1.644057e+000	-3.430810e+001
2003900390	-1.717652e+000	-3.356603e+001
2004200420	-1.680042e+000	-3.371848e+001
2004500450	-1.765180e+000	-3.374881e+001
2004800480	-1.676270e+000	-3.417353e+001
2005100510	-1.802969e+000	-3.381899e+001
2005400540	-1.667133e+000	-3.384660e+001
2005700570	-1.748953e+000	-3.378432e+001
2006000600	-1.748995e+000	-3.385240e+001
2006300630	-1.752224e+000	-3.373395e+001
2006600660	-1.659537e+000	-3.412901e+001
2006900690	-1.654156e+000	-3.449570e+001
2007200720	-1.721867e+000	-3.391178e+001
2007500750	-1.769286e+000	-3.372359e+001
2007800780	-1.696398e+000	-3.396168e+001
2008100810	-1.656517e+000	-3.451850e+001
2008400840	-1.785889e+000	-3.384923e+001
2008700870	-1.651640e+000	-3.416747e+001
2009000900	-1.756866e+000	-3.394502e+001
2009300930	-1.786657e+000	-3.385022e+001
2009600960	-1.802038e+000	-3.384414e+001
2009900990	-1.691428e+000	-3.407827e+001
2010201020	-1.664063e+000	-3.448596e+001
2010501050	-1.809725e+000	-3.390567e+001
2010801080	-1.709801e+000	-3.408356e+001
2011101110	-1.750750e+000	-3.396639e+001
2011401140	-1.676329e+000	-3.414617e+001
2011701170	-1.808928e+000	-3.394279e+001
2012001200	-1.682026e+000	-3.431313e+001
2012301230	-1.706119e+000	-3.435003e+001
2012601260	-1.800705e+000	-3.396176e+001
2012901290	-1.802442e+000	-3.393420e+001
2013201320	-1.685956e+000	-3.437416e+001
2013501350	-1.691584e+000	-3.447896e+001
2013801380	-1.821123e+000	-3.400658e+001
2014101410	-1.744320e+000	-3.421018e+001
2014401440	-1.666179e+000	-3.461765e+001
2014701470	-1.773133e+000	-3.391886e+001
2015001500	-1.797281e+000	-3.403603e+001
2015301530	-1.668814e+000	-3.465191e+001
2015601560	-1.719998e+000	-3.439861e+001
2015901590	-1.820207e+000	-3.403738e+001
2016201620	-1.771871e+000	-3.403340e+001
2016501650	-1.669927e+000	-3.460914e+001
2016801680	-1.747316e+000	-3.430917e+001
2017101710	-1.823316e+000	-3.406855e+001
2017401740	-1.701311e+000	-3.443763e+001
2017701770	-1.673819e+000	-3.451969e+001
2018001800	-1.822925e+000	-3.408318e+001
2018301830	-1.799511e+000	-3.412432e+001
2018601860	-1.674332e+000	-3.476894e+001
2018901890	-1.723469e+000	-3.444202e+001
2019201920	-1.831210e+000	-3.412975e+001
2019501950	-1.754180e+000	-3.418411e+001
2019801980	-1.694601e+000	-3.443814e+001
2020102010	-1.745222e+000	-3.439946e+001
2020402040	-1.832588e+000	-3.414488e+001
2020702070	-1.708954e+000	-3.440341e+001
2021002100	-1.761537e+000	-3.411376e+001
2021302130	-1.804945e+000	-3.412087e+001
2021602160	-1.795294e+000	-3.417382e+001
2021902190	-1.683146e+000	-3.486026e+001
2022202220	-1.752619e+000	-3.440705e+001
2022502250	-1.825082e+000	-3.414775e+001
2022802280	-1.764725e+000	-3.414652e+001
2023102310	-1.694971e+000	-3.467535e+001
2023402340	-1.698837e+000	-3.463067e+001
2023702370	-1.836952e+000	-3.419965e+001
2024002400	-1.762425e+000	-3.442696e+001
2024302430	-1.671717e+000	-3.465973e+001
2024602460	-1.788646e+000	-3.427879e+001
2024902490	-1.834902e+000	-3.422629e+001
2025202520	-1.692975e+000	-3.478043e+001
2025502550	-1.709994e+000	-3.467842e+001
2025802580	-1.797953e+000	-3.427187e+001
2026102610	-1.818134e+000	-3.426077e+001
2026402640	-1.700432e+000	-3.482140e+001
2026702670	-1.709439e+000	-3.469253e+001
2027002700	-1.840758e+000	-3.425911e+001
2027302730	-1.785856e+000	-3.439970e+001
2027602760	-1.683089e+000	-3.489769e+001
2027902790	-1.806246e+000	-3.431268e+001
2028202820	-1.823261e+000	-3.428493e+001
2028502850	-1.684534e+000	-3.486758e+001
2028802880	-1.711166e+000	-3.468779e+001
2029102910	-1.840857e+000	-3.428643e+001
2029402940	-1.774007e+000	-3.446873e+001
2029702970	-1.687596e+000	-3.490955e+001
2030003000	-1.708265e+000	-3.473710e+001
2030303030	-1.843211e+000	-3.430135e+001
2030603060	-1.746921e+000	-3.460550e+001
2030903090	-1.721906e+000	-3.455719e+001
2031203120	-1.828245e+000	-3.426134e+001
2031503150	-1.844584e+000	-3.431028e+001
2031803180	-1.701248e+000	-3.484604e+001
2032103210	-1.740395e+000	-3.462380e+001
2032403240	-1.838776e+000	-3.429884e+001
2032703270	-1.761372e+000	-3.415756e+001
2033003300	-1.711258e+000	-3.445435e+001
2033303330	-1.686067e+000	-3.468456e+001
2033603360	-1.831937e+000	-3.428446e+001
2033903390	-1.772780e+000	-3.442986e+001
2034203420	-1.839419e+000	-3.432817e+001
2034503450	-1.809284e+000	-3.423603e+001
2034803480	-1.827074e+000	-3.429727e+001
2035103510	-1.781587e+000	-3.423885e+001
2035403540	-1.757985e+000	-3.452664e+001
2035703570	-1.722445e+000	-3.446743e+001
2036003600	-1.767780e+000	-3.418937e+001
2036303630	-1.725594e+000	-3.453458e+001
2036603660	-1.693922e+000	-3.479222e+001
2036903690	-1.766644e+000	-3.442893e+001
2037203720	-1.697729e+000	-3.446387e+001
2037503750	-1.827624e+000	-3.432753e+001
2037803780	-1.682249e+000	-3.482028e+001
2038103810	-1.783088e+000	-3.422632e+001
2038403840	-1.710469e+000	-3.450351e+001
2038703870	-1.701491e+000	-3.461731e+001
2039003900	-1.676937e+000	-3.478131e+001
2039303930	-1.740195e+000	-3.454689e+001
2039603960	-1.780058e+000	-3.437764e+001
2039903990	-1.694783e+000	-3.499609e+001
2040204020	-1.701262e+000	-3.460099e+001
2040504050	-1.810429e+000	-3.428668e+001
2040804080	-1.849037e+000	-3.438340e+001
2041104110	-1.715188e+000	-3.478172e+001
2041404140	-1.750052e+000	-3.466499e+001
2041704170	-1.849333e+000	-3.437837e+001
2042004200	-1.696132e+000	-3.473801e+001
2042304230	-1.705275e+000	-3.465917e+001
2042604260	-1.776025e+000	-3.437340e+001
2042904290	-1.752220e+000	-3.457842e+001
2043204320	-1.696663e+000	-3.497939e+001
2043504350	-1.752492e+000	-3.430316e+001
2043804380	-1.721379e+000	-3.441061e+001
2044104410	-1.776593e+000	-3.420318e+001
2044404440	-1.705666e+000	-3.449940e+001
2044704470	-1.702005e+000	-3.448294e+001
2045004500	-1.720667e+000	-3.433857e+001
2045304530	-1.720234e+000	-3.442923e+001
2045604560	-1.698795e+000	-3.459898e+001
2045904590	-1.691375e+000	-3.476990e+001
2046204620	-1.739802e+000	-3.426507e+001
2046504650	-1.687792e+000	-3.492443e+001
2046804680	-1.709407e+000	-3.460884e+001
2047104710	-1.703558e+000	-3.458961e+001
2047404740	-1.808549e+000	-3.426855e+001
2047704770	-1.697931e+000	-3.464262e+001
2048004800	-1.691536e+000	-3.462254e+001
2048304830	-1.705280e+000	-3.449884e+001
2048604860	-1.712682e+000	-3.452727e+001
2048904890	-1.716130e+000	-3.441671e+001
2049204920	-1.687672e+000	-3.496757e+001
2049504950	-1.697577e+000	-3.449933e+001
2049804980	-1.700113e+000	-3.475369e+001
2050105011	-1.702426e+000	-3.475767e+001
2050405041	-1.691530e+000	-3.500103e+001
2050705071	-1.810392e+000	-3.449787e+001
2051005101	-1.808675e+000	-3.451177e+001
2051305131	-1.700462e+000	-3.470172e+001
2051605161	-1.710513e+000	-3.482721e+001
2051905191	-1.772203e+000	-3.426276e+001
2052205221	-1.722169e+000	-3.481521e+001
2052505251	-1.695140e+000	-3.465958e+001
2052805281	-1.686682e+000	-3.489421e+001
2053105311	-1.720594e+000	-3.457276e+001
2053405341	-1.706181e+000	-3.473697e+001
2053705371	-1.698851e+000	-3.482990e+001
2054005401	-1.813777e+000	-3.441943e+001
2054305431	-1.738237e+000	-3.458157e+001
2054605461	-1.796498e+000	-3.426275e+001
2054905491	-1.696680e+000	-3.507378e+001
2055205521	-1.783867e+000	-3.463179e+001
2055505551	-1.741262e+000	-3.476811e+001
2055805581	-1.711919e+000	-3.470597e+001
2056105611	-1.701022e+000	-3.479320e+001
2056405641	-1.707678e+000	-3.457477e+001
2056705671	-1.806816e+000	-3.436220e+001
2057005701	-1.695250e+000	-3.503269e+001
2057305731	-1.773361e+000	-3.455792e+001
2057605761	-1.853341e+000	-3.446518e+001
2057905791	-1.813855e+000	-3.442259e+001
2058205821	-1.718708e+000	-3.476650e+001
2058505851	-1.767138e+000	-3.469143e+001
2058805881	-1.848310e+000	-3.443839e+001
2059105911	-1.755943e+000	-3.469930e+001
2059405941	-1.755912e+000	-3.445240e+001
2059705971	-1.830982e+000	-3.438662e+001
2060006001	-1.807471e+000	-3.452793e+001
2060306031	-1.698415e+000	-3.474071e+001
2060606061	-1.776156e+000	-3.467097e+001
2060906091	-1.855024e+000	-3.448778e+001
2061206121	-1.819652e+000	-3.447343e+001
2061506151	-1.701644e+000	-3.507566e+001
2061806181	-1.757540e+000	-3.483517e+001
2062106211	-1.858834e+000	-3.448522e+001
2062406241	-1.750306e+000	-3.465541e+001
2062706271	-1.738905e+000	-3.445257e+001
2063006301	-1.847290e+000	-3.444041e+001
2063306331	-1.833269e+000	-3.451159e+001
2063606361	-1.699378e+000	-3.504033e+001
2063906391	-1.751092e+000	-3.468822e+001
2064206421	-1.830477e+000	-3.445050e+001
2064506451	-1.810117e+000	-3.449406e+001
2064806481	-1.706439e+000	-3.499806e+001
2065106511	-1.731706e+000	-3.496904e+001
2065406541	-1.867014e+000	-3.455136e+001
2065706571	-1.772572e+000	-3.477025e+001
2066006601	-1.719452e+000	-3.472982e+001
2066306631	-1.758500e+000	-3.441293e+001
2066606661	-1.864507e+000	-3.456763e+001
2066906691	-1.793192e+000	-3.441934e+001
2067206721	-1.709726e+000	-3.495351e+001
2067506751	-1.825786e+000	-3.461734e+001
2067806781	-1.817849e+000	-3.456338e+001
2068106811	-1.707431e+000	-3.521777e+001
2068406841	-1.725385e+000	-3.499282e+001
2068706871	-1.869589e+000	-3.459855e+001
2069006901	-1.795574e+000	-3.478580e+001
2069306931	-1.712056e+000	-3.480898e+001
2069606961	-1.862986e+000	-3.458066e+001
2069906991	-1.865160e+000	-3.456846e+001
2070207021	-1.786751e+000	-3.464281e+001
2070507051	-1.779475e+000	-3.470593e+001
2070807081	-1.845469e+000	-3.451991e+001
2071107111	-1.839375e+000	-3.443704e+001
2071407141	-1.711449e+000	-3.499962e+001
2071707171	-1.725986e+000	-3.508801e+001
2072007201	-1.828286e+000	-3.457795e+001
2072307231	-1.873466e+000	-3.458214e+001
2072607261	-1.801336e+000	-3.451603e+001
2072907291	-1.714070e+000	-3.496968e+001
2073207321	-1.868221e+000	-3.460678e+001
2073507351	-1.878374e+000	-3.464000e+001
2073807381	-1.821828e+000	-3.465900e+001
2074107411	-1.877468e+000	-3.461266e+001
2074407441	-1.797712e+000	-3.473693e+001
2074707471	-1.800136e+000	-3.448020e+001
2075007501	-1.723407e+000	-3.535325e+001
2075307531	-1.755284e+000	-3.486197e+001
2075607561	-1.773838e+000	-3.484648e+001
2075907591	-1.878566e+000	-3.467359e+001
2076207621	-1.776485e+000	-3.507466e+001
2076507651	-1.778656e+000	-3.484013e+001
2076807681	-1.873291e+000	-3.465773e+001
2077107711	-1.884772e+000	-3.472732e+001
2077407741	-1.735872e+000	-3.506205e+001
2077707771	-1.816202e+000	-3.486460e+001
2078007801	-1.837521e+000	-3.468845e+001
2078307831	-1.728853e+000	-3.539836e+001
2078607861	-1.731771e+000	-3.529196e+001
2078907891	-1.869142e+000	-3.472875e+001
2079207921	-1.816234e+000	-3.492428e+001
2079507951	-1.733269e+000	-3.545648e+001
2079807981	-1.831619e+000	-3.471783e+001
2080108011	-1.891005e+000	-3.476439e+001
2080408041	-1.885768e+000	-3.472010e+001
2080708071	-1.749540e+000	-3.487620e+001
2081008101	-1.853730e+000	-3.479854e+001
2081308131	-1.844019e+000	-3.476349e+001
2081608161	-1.736977e+000	-3.549069e+001
2081908191	-1.766106e+000	-3.490708e+001
2082208221	-1.789894e+000	-3.468837e+001
2082508251	-1.857572e+000	-3.486949e+001
2082808281	-1.741017e+000	-3.551767e+001
2083108311	-1.880767e+000	-3.475347e+001
2083408341	-1.898328e+000	-3.479865e+001
2083708371	-1.880572e+000	-3.479745e+001
2084008401	-1.778538e+000	-3.478294e+001
2084308431	-1.900736e+000	-3.485539e+001
2084608461	-1.817572e+000	-3.475644e+001
2084908491	-1.743218e+000	-3.552767e+001
2085208521	-1.837312e+000	-3.469585e+001
2085508551	-1.761952e+000	-3.508513e+001
2085808581	-1.852493e+000	-3.483286e+001
2086108611	-1.746994e+000	-3.545437e+001
2086408641	-1.901382e+000	-3.487227e+001
2086708671	-1.839959e+000	-3.475294e+001
2087008701	-1.866032e+000	-3.489756e+001
2087308731	-1.790774e+000	-3.496429e+001
2087608761	-1.878168e+000	-3.484083e+001
2087908791	-1.788759e+000	-3.495475e+001
2088208821	-1.757967e+000	-3.535298e+001
2088508851	-1.782327e+000	-3.511381e+001
2088808881	-1.751494e+000	-3.526974e+001
2089108911	-1.887767e+000	-3.485827e+001
2089408941	-1.805950e+000	-3.529853e+001
2089708971	-1.907015e+000	-3.490849e+001
2090009001	-1.848536e+000	-3.491734e+001
2090309031	-1.871213e+000	-3.508830e+001
2090609061	-1.770228e+000	-3.541391e+001
2090909091	-1.851005e+000	-3.486156e+001
2091209121	-1.803853e+000	-3.510489e+001
2091509151	-1.784019e+000	-3.518234e+001
2091809181	-1.764294e+000	-3.534576e+001
2092109211	-1.841147e+000	-3.491711e+001
2092409241	-1.853851e+000	-3.493251e+001
2092709271	-1.843494e+000	-3.522127e+001
2093009301	-1.757637e+000	-3.542472e+001
2093309331	-1.844541e+000	-3.501921e+001
2093609361	-1.863300e+000	-3.508044e+001
2093909391	-1.832950e+000	-3.523407e+001
2094209421	-1.783796e+000	-3.549638e+001
2094509451	-1.864333e+000	-3.493183e+001
2094809481	-1.772145e+000	-3.537671e+001
2095109511	-1.827074e+000	-3.499586e+001
2095409541	-1.797541e+000	-3.530489e+001
2095709571	-1.923768e+000	-3.507687e+001
2096009601	-1.883801e+000	-3.523674e+001
2096309631	-1.836644e+000	-3.523583e+001
2096609661	-1.849170e+000	-3.527176e+001
2096909691	-1.892225e+000	-3.516147e+001
2097209721	-1.902142e+000	-3.500116e+001
2097509751	-1.803017e+000	-3.536718e+001
2097809781	-1.860274e+000	-3.524757e+001
2098109811	-1.930611e+000	-3.510747e+001
2098409841	-1.880101e+000	-3.524351e+001
2098709871	-1.773251e+000	-3.579694e+001
2099009901	-1.930311e+000	-3.516830e+001
2099309931	-1.878598e+000	-3.532979e+001
2099609961	-1.836282e+000	-3.535552e+001
2099909991	-1.786004e+000	-3.569070e+001
2100210021	-1.900386e+000	-3.527098e+001
2100510051	-1.867696e+000	-3.538923e+001
2100810081	-1.784480e+000	-3.581173e+001
2101110111	-1.834015e+000	-3.523790e+001
2101410141	-1.924083e+000	-3.512765e+001
2101710171	-1.854584e+000	-3.546475e+001
2102010201	-1.786445e+000	-3.577428e+001
2102310231	-1.937420e+000	-3.524797e+001
2102610261	-1.880904e+000	-3.546087e+001
2102910291	-1.836873e+000	-3.542802e+001
2103210321	-1.819069e+000	-3.557478e+001
2103510351	-1.849879e+000	-3.535856e+001
2103810381	-1.896203e+000	-3.528818e+001
2104110411	-1.785309e+000	-3.576531e+001
2104410441	-1.797081e+000	-3.543639e+001
2104710471	-1.789588e+000	-3.546331e+001
2105010501	-1.885496e+000	-3.542867e+001
2105310531	-1.783894e+000	-3.588831e+001
2105610561	-1.911222e+000	-3.527741e+001
2105910591	-1.904830e+000	-3.540900e+001
2106210621	-1.800940e+000	-3.567312e+001
2106510651	-1.821379e+000	-3.553657e+001
2106810681	-1.828081e+000	-3.559830e+001
2107110711	-1.944218e+000	-3.521477e+001
2107410741	-1.839318e+000	-3.540824e+001
2107710771	-1.867515e+000	-3.536179e+001
2108010801	-1.793878e+000	-3.600674e+001
2108310831	-1.925907e+000	-3.529209e+001
2108610861	-1.888956e+000	-3.544074e+001
2108910891	-1.922509e+000	-3.522018e+001
2109210921	-1.826493e+000	-3.533520e+001
2109510951	-1.916940e+000	-3.525498e+001
2109810981	-1.869657e+000	-3.521370e+001
2110111011	-1.835581e+000	-3.576183e+001
2110411041	-1.961989e+000	-3.535363e+001
2110711071	-1.860324e+000	-3.524067e+001
2111011101	-1.856109e+000	-3.550884e+001
2111311131	-1.804416e+000	-3.608910e+001
2111611161	-1.945716e+000	-3.534790e+001
2111911191	-1.829538e+000	-3.580976e+001
2112211221	-1.946896e+000	-3.535722e+001
2112511251	-1.863465e+000	-3.539112e+001
2112811281	-1.952348e+000	-3.541226e+001
2113111311	-1.799859e+000	-3.591418e+001
2113411341	-1.867114e+000	-3.572561e+001
2113711371	-1.827094e+000	-3.552212e+001
2114011401	-1.880921e+000	-3.539813e+001
2114311431	-1.860682e+000	-3.577083e+001
2114611461	-1.810380e+000	-3.619465e+001
2114911491	-1.967074e+000	-3.545028e+001
2115211521	-1.914151e+000	-3.546986e+001
2115511551	-1.964900e+000	-3.550441e+001
2115811581	-1.868423e+000	-3.582440e+001
2116111611	-1.956879e+000	-3.547600e+001
2116411641	-1.891655e+000	-3.528642e+001
2116711671	-1.841536e+000	-3.565050e+001
2117011701	-1.822372e+000	-3.573748e+001
2117311731	-1.836503e+000	-3.580118e+001
2117611761	-1.922519e+000	-3.548333e+001
2117911791	-1.839070e+000	-3.595976e+001
2118211821	-1.829508e+000	-3.571927e+001
2118511851	-1.943690e+000	-3.556535e+001
2118811881	-1.954893e+000	-3.551298e+001
2119111911	-1.890853e+000	-3.547977e+001
2119411941	-1.934277e+000	-3.542120e+001
2119711971	-1.900366e+000	-3.563341e+001
2120012001	-1.814174e+000	-3.584395e+001
2120312031	-1.841134e+000	-3.562589e+001
2120612061	-1.849836e+000	-3.583276e+001
2120912091	-1.974992e+000	-3.552037e+001
2121212121	-1.854712e+000	-3.588329e+001
2121512151	-1.864758e+000	-3.564203e+001
2121812181	-1.943345e+000	-3.540919e+001
2122112211	-1.971925e+000	-3.559195e+001
2122412241	-1.887587e+000	-3.568137e+001
2122712271	-1.961820e+000	-3.548282e+001
2123012301	-1.908825e+000	-3.561188e+001
2123312331	-1.970484e+000	-3.558619e+001
2123612361	-1.855267e+000	-3.599828e+001
2123912391	-1.868530e+000	-3.591249e+001
2124212421	-1.975326e+000	-3.556313e+001
2124512451	-1.889273e+000	-3.589850e+001
2124812481	-1.821266e+000	-3.606784e+001
2125112511	-1.922791e+000	-3.555128e+001
2125412541	-1.970925e+000	-3.563452e+001
2125712571	-1.908923e+000	-3.585318e+001
2126012601	-1.896370e+000	-3.578995e+001
2126312631	-1.971546e+000	-3.553101e+001
2126612661	-1.880574e+000	-3.564920e+001
2126912691	-1.838091e+000	-3.608993e+001
2127212721	-1.853611e+000	-3.600988e+001
2127512751	-1.940935e+000	-3.565949e+001
2127812781	-1.845704e+000	-3.612416e+001
2128112811	-1.822581e+000	-3.601858e+001
2128412841	-1.881280e+000	-3.569692e+001
2128712871	-1.946630e+000	-3.557921e+001
2129012901	-1.889082e+000	-3.595771e+001
2129312931	-1.864024e+000	-3.600572e+001
2129612961	-1.898623e+000	-3.582426e+001
2129912991	-1.815943e+000	-3.588711e+001
2130213021	-1.857808e+000	-3.613989e+001
2130513051	-1.838721e+000	-3.617766e+001
2130813081	-1.935937e+000	-3.556679e+001
2131113111	-1.863750e+000	-3.607384e+001
2131413141	-1.820263e+000	-3.631209e+001
2131713171	-1.927805e+000	-3.573044e+001
2132013201	-1.977685e+000	-3.568049e+001
2132313231	-1.858544e+000	-3.605051e+001
2132613261	-1.871946e+000	-3.599330e+001
2132913291	-1.962932e+000	-3.565766e+001
2133213321	-1.814433e+000	-3.603407e+001
2133513351	-1.857901e+000	-3.585119e+001
2133813381	-1.861032e+000	-3.587890e+001
2134113411	-1.967910e+000	-3.565086e+001
2134413441	-1.867613e+000	-3.611140e+001
2134713471	-1.866302e+000	-3.564721e+001
2135013501	-1.958231e+000	-3.569976e+001
2135313531	-1.973824e+000	-3.565543e+001
2135613561	-1.856675e+000	-3.594936e+001
2135913591	-1.911649e+000	-3.581498e+001
2136213621	-1.957612e+000	-3.562967e+001
2136513651	-1.835166e+000	-3.608731e+001
2136813681	-1.826288e+000	-3.601334e+001
2137113711	-1.921455e+000	-3.558888e+001
2137413741	-1.933395e+000	-3.568362e+001
2137713771	-1.834624e+000	-3.618171e+001
2138013801	-1.843112e+000	-3.566195e+001
2138313831	-1.873855e+000	-3.572644e+001
2138613861	-1.886824e+000	-3.561509e+001
2138913891	-1.849738e+000	-3.598814e+001
2139213921	-1.941279e+000	-3.571277e+001
2139513951	-1.857539e+000	-3.580483e+001
2139813981	-1.834206e+000	-3.596126e+001
2140114011	-1.886587e+000	-3.595545e+001
2140414041	-1.826233e+000	-3.633215e+001
2140714071	-1.978081e+000	-3.570880e+001
2141014101	-1.851278e+000	-3.619354e+001
2141314131	-1.821498e+000	-3.607431e+001
2141614161	-1.880898e+000	-3.588752e+001
2141914191	-1.914617e+000	-3.564466e+001
2142214221	-1.889111e+000	-3.596594e+001
2142514251	-1.837073e+000	-3.599741e+001
2142814281	-1.873482e+000	-3.588568e+001
2143114311	-1.868593e+000	-3.583406e+001
2143414341	-1.874251e+000	-3.614849e+001
2143714371	-1.828103e+000	-3.624823e+001
