!Agilent Technologies,E5071C,MY46214220,A.11.31
!Date: Fri Sep 22 10:41:39 2017
!Data & Calibration Information:
!Freq	S11:SOLT1(ON)
!PortZ  Port1:50+j0
!Above PortZ is port z conversion or system Z0 setting when saving the data.
!When reading, reference impedance value at option line is always used.
# Hz S dB R 50
2000000000	-4.536670e-001	-4.773055e+001
2000150008	-4.443502e-001	-4.778496e+001
2000300015	-3.049777e-001	-4.860698e+001
2000450023	-4.753887e-001	-4.777697e+001
2000600030	-3.186268e-001	-4.836198e+001
2000750038	-4.847338e-001	-4.779101e+001
2000900045	-4.580031e-001	-4.789940e+001
2001050053	-3.051522e-001	-4.863396e+001
2001200060	-4.299416e-001	-4.777896e+001
2001350068	-3.677986e-001	-4.812065e+001
2001500075	-3.366399e-001	-4.832656e+001
2001650083	-5.454170e-001	-4.801653e+001
2001800090	-5.102380e-001	-4.781849e+001
2001950098	-4.315361e-001	-4.783172e+001
2002100105	-4.964591e-001	-4.780303e+001
2002250113	-3.175784e-001	-4.826508e+001
2002400120	-3.924675e-001	-4.772458e+001
2002550128	-3.266055e-001	-4.808167e+001
2002700135	-4.496143e-001	-4.778566e+001
2002850143	-4.280644e-001	-4.774284e+001
2003000150	-4.337446e-001	-4.772627e+001
2003150158	-4.265302e-001	-4.771934e+001
2003300165	-3.577983e-001	-4.796651e+001
2003450173	-4.528286e-001	-4.774674e+001
2003600180	-3.117026e-001	-4.870031e+001
2003750188	-4.362171e-001	-4.803459e+001
2003900195	-4.348943e-001	-4.775230e+001
2004050203	-5.046666e-001	-4.792386e+001
2004200210	-3.785987e-001	-4.789772e+001
2004350218	-3.395856e-001	-4.814449e+001
2004500225	-5.001191e-001	-4.805512e+001
2004650233	-3.472655e-001	-4.852008e+001
2004800240	-3.613978e-001	-4.856601e+001
2004950248	-5.094737e-001	-4.800216e+001
2005100255	-5.496662e-001	-4.823040e+001
2005250263	-3.719570e-001	-4.834933e+001
2005400270	-3.525155e-001	-4.808772e+001
2005550278	-4.718281e-001	-4.817244e+001
2005700285	-4.736859e-001	-4.814143e+001
2005850293	-3.072736e-001	-4.890905e+001
2006000300	-4.688467e-001	-4.822397e+001
2006150308	-5.485804e-001	-4.826243e+001
2006300315	-4.782613e-001	-4.805265e+001
2006450323	-3.226138e-001	-4.842921e+001
2006600330	-3.347203e-001	-4.851519e+001
2006750338	-4.625969e-001	-4.796258e+001
2006900345	-3.148021e-001	-4.902846e+001
2007050353	-3.159330e-001	-4.871624e+001
2007200360	-4.277338e-001	-4.828829e+001
2007350368	-5.450033e-001	-4.827683e+001
2007500375	-5.000543e-001	-4.810791e+001
2007650383	-3.626197e-001	-4.865895e+001
2007800390	-3.889614e-001	-4.833870e+001
2007950398	-3.768223e-001	-4.840079e+001
2008100405	-3.158893e-001	-4.908863e+001
2008250413	-3.167032e-001	-4.869824e+001
2008400420	-5.235923e-001	-4.832831e+001
2008550428	-4.504863e-001	-4.827472e+001
2008700435	-3.186035e-001	-4.857787e+001
2008850443	-4.909055e-001	-4.840183e+001
2009000450	-4.765092e-001	-4.840566e+001
2009150458	-3.341925e-001	-4.885636e+001
2009300465	-5.221846e-001	-4.832454e+001
2009450473	-4.636177e-001	-4.820233e+001
2009600480	-5.409407e-001	-4.835693e+001
2009750488	-5.006240e-001	-4.836155e+001
2009900495	-3.787663e-001	-4.854859e+001
2010050503	-5.430201e-001	-4.839751e+001
2010200510	-3.245962e-001	-4.909649e+001
2010350518	-3.599148e-001	-4.883535e+001
2010500525	-5.486618e-001	-4.845990e+001
2010650533	-3.981594e-001	-4.859376e+001
2010800540	-4.033020e-001	-4.858155e+001
2010950548	-4.449686e-001	-4.842947e+001
2011100555	-4.627600e-001	-4.847992e+001
2011250563	-4.232120e-001	-4.848531e+001
2011400570	-3.511317e-001	-4.865360e+001
2011550578	-3.606093e-001	-4.846253e+001
2011700585	-5.467021e-001	-4.852195e+001
2011850593	-3.929579e-001	-4.878752e+001
2012000600	-3.571104e-001	-4.892216e+001
2012150608	-5.602045e-001	-4.860849e+001
2012300615	-3.868553e-001	-4.899825e+001
2012450623	-4.401907e-001	-4.886269e+001
2012600630	-5.313903e-001	-4.853631e+001
2012750638	-3.403035e-001	-4.863561e+001
2012900645	-5.320387e-001	-4.851816e+001
2013050653	-5.073880e-001	-4.850885e+001
2013200660	-3.532650e-001	-4.898444e+001
2013350668	-5.608704e-001	-4.865613e+001
2013500675	-3.573167e-001	-4.914187e+001
2013650683	-3.672428e-001	-4.905198e+001
2013800690	-5.606020e-001	-4.867220e+001
2013950698	-3.634574e-001	-4.892737e+001
2014100705	-4.440296e-001	-4.882911e+001
2014250713	-5.012977e-001	-4.861607e+001
2014400720	-3.163914e-001	-4.935279e+001
2014550728	-3.164140e-001	-4.930041e+001
2014700735	-4.884620e-001	-4.847805e+001
2014850743	-3.166361e-001	-4.920065e+001
2015000750	-5.202532e-001	-4.866316e+001
2015150758	-4.036000e-001	-4.892290e+001
2015300765	-3.188697e-001	-4.942193e+001
2015450773	-5.501483e-001	-4.867018e+001
2015600780	-3.994135e-001	-4.909282e+001
2015750788	-3.726866e-001	-4.925421e+001
2015900795	-5.539850e-001	-4.873690e+001
2016050803	-3.949260e-001	-4.841771e+001
2016200810	-4.864278e-001	-4.864110e+001
2016350818	-5.467876e-001	-4.873109e+001
2016500825	-3.208850e-001	-4.935089e+001
2016650833	-5.565062e-001	-4.875574e+001
2016800840	-4.390697e-001	-4.901779e+001
2016950848	-3.196001e-001	-4.954302e+001
2017100855	-5.547318e-001	-4.879357e+001
2017250863	-4.362958e-001	-4.902945e+001
2017400870	-3.706962e-001	-4.915113e+001
2017550878	-5.519701e-001	-4.876022e+001
2017700885	-3.287149e-001	-4.925149e+001
2017850893	-3.313475e-001	-4.943101e+001
2018000900	-5.556245e-001	-4.879593e+001
2018150908	-3.301054e-001	-4.945774e+001
2018300915	-5.180506e-001	-4.884077e+001
2018450923	-4.518934e-001	-4.897529e+001
2018600930	-3.172546e-001	-4.961317e+001
2018750938	-5.383158e-001	-4.881715e+001
2018900945	-3.974280e-001	-4.919608e+001
2019050953	-3.780911e-001	-4.937226e+001
2019200960	-5.612447e-001	-4.889438e+001
2019350968	-3.704651e-001	-4.905717e+001
2019500975	-4.472101e-001	-4.887088e+001
2019650983	-5.589263e-001	-4.886699e+001
2019800990	-3.518537e-001	-4.916671e+001
2019950998	-5.597616e-001	-4.892952e+001
2020101005	-4.275874e-001	-4.915848e+001
2020251013	-3.243292e-001	-4.953355e+001
2020401020	-5.602464e-001	-4.892903e+001
2020551028	-4.833241e-001	-4.885200e+001
2020701035	-3.740336e-001	-4.912213e+001
2020851043	-5.553220e-001	-4.890769e+001
2021001050	-4.559981e-001	-4.877566e+001
2021151058	-3.196591e-001	-4.938850e+001
2021301065	-5.197522e-001	-4.883126e+001
2021451073	-3.141172e-001	-4.964325e+001
2021601080	-5.000516e-001	-4.891321e+001
2021751088	-4.715920e-001	-4.903470e+001
2021901095	-3.193328e-001	-4.974296e+001
2022051103	-5.009513e-001	-4.901575e+001
2022201110	-4.330751e-001	-4.918325e+001
2022351118	-3.422302e-001	-4.946566e+001
2022501125	-5.449915e-001	-4.890385e+001
2022651133	-3.327344e-001	-4.914109e+001
2022801140	-4.555740e-001	-4.882816e+001
2022951148	-5.129421e-001	-4.897526e+001
2023101155	-3.401768e-001	-4.950560e+001
2023251163	-5.559412e-001	-4.898347e+001
2023401170	-3.464904e-001	-4.943951e+001
2023551178	-3.920178e-001	-4.918524e+001
2023701185	-5.581021e-001	-4.899896e+001
2023851193	-3.802079e-001	-4.923601e+001
2024001200	-4.485873e-001	-4.921185e+001
2024151208	-5.108083e-001	-4.891855e+001
2024301215	-3.060034e-001	-4.945768e+001
2024451223	-5.107865e-001	-4.891373e+001
2024601230	-4.859086e-001	-4.903494e+001
2024751238	-3.387151e-001	-4.959461e+001
2024901245	-5.559641e-001	-4.902893e+001
2025051253	-3.766806e-001	-4.929229e+001
2025201260	-3.319332e-001	-4.964701e+001
2025351268	-5.552553e-001	-4.900079e+001
2025501275	-3.596224e-001	-4.951374e+001
2025651283	-4.008980e-001	-4.937766e+001
2025801290	-5.000335e-001	-4.904250e+001
2025951298	-3.094566e-001	-4.973818e+001
2026101305	-5.217835e-001	-4.904303e+001
2026251313	-4.814392e-001	-4.914820e+001
2026401320	-3.386588e-001	-4.969295e+001
2026551328	-5.555512e-001	-4.903867e+001
2026701335	-3.544173e-001	-4.951186e+001
2026851343	-3.758263e-001	-4.946950e+001
2027001350	-5.558190e-001	-4.906484e+001
2027151358	-4.115363e-001	-4.936900e+001
2027301365	-4.721057e-001	-4.918896e+001
2027451373	-5.233411e-001	-4.899698e+001
2027601380	-3.095127e-001	-4.977560e+001
2027751388	-4.286318e-001	-4.927241e+001
2027901395	-5.025420e-001	-4.907550e+001
2028051403	-3.089307e-001	-4.979908e+001
2028201410	-5.253229e-001	-4.905405e+001
2028351418	-4.225366e-001	-4.919145e+001
2028501425	-3.084700e-001	-4.973830e+001
2028651433	-5.440179e-001	-4.900386e+001
2028801440	-3.520814e-001	-4.950008e+001
2028951448	-3.965705e-001	-4.945607e+001
2029101455	-5.518661e-001	-4.906835e+001
2029251463	-3.133884e-001	-4.965746e+001
2029401470	-4.451938e-001	-4.926271e+001
2029551478	-4.980034e-001	-4.906392e+001
2029701485	-3.089808e-001	-4.978254e+001
2029851493	-5.291878e-001	-4.895703e+001
2030001500	-3.427830e-001	-4.955638e+001
2030151508	-3.406436e-001	-4.959494e+001
2030301515	-5.508031e-001	-4.908754e+001
2030451523	-4.125283e-001	-4.935614e+001
2030601530	-4.010543e-001	-4.940492e+001
2030751538	-5.496307e-001	-4.907997e+001
2030901545	-3.667946e-001	-4.929143e+001
2031051553	-3.378474e-001	-4.948856e+001
2031201560	-5.331702e-001	-4.900932e+001
2031351568	-3.341303e-001	-4.948829e+001
2031501575	-5.510680e-001	-4.909877e+001
2031651583	-3.998540e-001	-4.930309e+001
2031801590	-3.243920e-001	-4.968972e+001
2031951598	-5.488732e-001	-4.908764e+001
2032101605	-3.930515e-001	-4.939730e+001
2032251613	-3.613906e-001	-4.956328e+001
2032401620	-5.430973e-001	-4.906570e+001
2032551628	-3.622180e-001	-4.890561e+001
2032701635	-4.301106e-001	-4.876669e+001
2032851643	-5.205147e-001	-4.902313e+001
2033001650	-3.512163e-001	-4.911412e+001
2033151658	-5.362742e-001	-4.902787e+001
2033301665	-3.060781e-001	-4.941818e+001
2033451673	-3.409833e-001	-4.906491e+001
2033601680	-5.286166e-001	-4.901372e+001
2033751688	-4.044085e-001	-4.903256e+001
2033901695	-4.384573e-001	-4.915816e+001
2034051703	-5.483453e-001	-4.911810e+001
2034201710	-5.421615e-001	-4.906709e+001
2034351718	-3.042619e-001	-4.951363e+001
2034501725	-4.970986e-001	-4.888945e+001
2034651733	-4.898111e-001	-4.884094e+001
2034801740	-5.202817e-001	-4.901063e+001
2034951748	-4.164423e-001	-4.880715e+001
2035101755	-4.543174e-001	-4.886586e+001
2035251763	-4.873015e-001	-4.899147e+001
2035401770	-4.146939e-001	-4.922590e+001
2035551778	-3.499295e-001	-4.933157e+001
2035701785	-3.660902e-001	-4.909165e+001
2035851793	-3.843437e-001	-4.903815e+001
2036001800	-4.369163e-001	-4.873483e+001
2036151808	-4.103149e-001	-4.899871e+001
2036301815	-3.646376e-001	-4.918254e+001
2036451823	-4.436001e-001	-4.913243e+001
2036601830	-3.140383e-001	-4.952204e+001
2036751838	-3.980176e-001	-4.890664e+001
2036901845	-4.276076e-001	-4.905804e+001
2037051853	-4.203448e-001	-4.898867e+001
2037201860	-3.284107e-001	-4.902584e+001
2037351868	-3.409989e-001	-4.891220e+001
2037501875	-5.212736e-001	-4.897658e+001
2037651883	-3.310055e-001	-4.920494e+001
2037801890	-2.949485e-001	-4.949250e+001
2037951898	-4.061097e-001	-4.875775e+001
2038101905	-4.571283e-001	-4.876286e+001
2038251913	-3.412826e-001	-4.893184e+001
2038401920	-3.428698e-001	-4.905728e+001
2038551928	-3.529099e-001	-4.886676e+001
2038701935	-3.261682e-001	-4.918350e+001
2038851943	-2.959473e-001	-4.964777e+001
2039001950	-2.883068e-001	-4.939578e+001
2039151958	-5.184777e-001	-4.896063e+001
2039301965	-3.848420e-001	-4.909387e+001
2039451973	-2.935802e-001	-4.974136e+001
2039601980	-4.438085e-001	-4.889880e+001
2039751988	-3.624975e-001	-4.923901e+001
2039901995	-3.021500e-001	-4.968235e+001
2040052003	-4.676200e-001	-4.879818e+001
2040202010	-3.216527e-001	-4.910543e+001
2040352018	-5.069225e-001	-4.875706e+001
2040502025	-4.907782e-001	-4.878473e+001
2040652033	-3.106521e-001	-4.930940e+001
2040802040	-5.380850e-001	-4.896885e+001
2040952048	-3.355915e-001	-4.937171e+001
2041102055	-3.313340e-001	-4.936708e+001
2041252063	-5.335674e-001	-4.893888e+001
2041402070	-3.836715e-001	-4.921612e+001
2041552078	-3.454689e-001	-4.934581e+001
2041702085	-5.328044e-001	-4.892411e+001
2041852093	-4.909788e-001	-4.870222e+001
2042002100	-3.013216e-001	-4.923504e+001
2042152108	-3.829741e-001	-4.900195e+001
2042302115	-3.142673e-001	-4.912077e+001
2042452123	-4.459075e-001	-4.888013e+001
2042602130	-4.272020e-001	-4.877485e+001
2042752138	-2.773591e-001	-4.954379e+001
2042902145	-3.824958e-001	-4.906046e+001
2043052153	-3.641215e-001	-4.891685e+001
2043202160	-2.909733e-001	-4.954579e+001
2043352168	-4.024589e-001	-4.863483e+001
2043502175	-3.885452e-001	-4.866188e+001
2043652183	-3.505476e-001	-4.879478e+001
2043802190	-3.367905e-001	-4.876756e+001
2043952198	-3.633569e-001	-4.856759e+001
2044102205	-4.252463e-001	-4.852728e+001
2044252213	-2.808801e-001	-4.935051e+001
2044402220	-3.114165e-001	-4.888971e+001
2044552228	-3.732074e-001	-4.851795e+001
2044702235	-3.077621e-001	-4.882290e+001
2044852243	-3.352188e-001	-4.863808e+001
2045002250	-3.328931e-001	-4.864997e+001
2045152258	-3.625244e-001	-4.858038e+001
2045302265	-3.323507e-001	-4.878658e+001
2045452273	-2.662382e-001	-4.951160e+001
2045602280	-2.930515e-001	-4.898692e+001
2045752288	-4.119770e-001	-4.850231e+001
2045902295	-2.767453e-001	-4.922235e+001
2046052303	-2.710006e-001	-4.908885e+001
2046202310	-3.620861e-001	-4.856703e+001
2046352318	-3.214209e-001	-4.895515e+001
2046502325	-2.661455e-001	-4.942235e+001
2046652333	-2.891216e-001	-4.900033e+001
2046802340	-3.064149e-001	-4.902682e+001
2046952348	-4.416264e-001	-4.851053e+001
2047102355	-2.994162e-001	-4.896706e+001
2047252363	-2.775241e-001	-4.929243e+001
2047402370	-4.613842e-001	-4.861534e+001
2047552378	-2.655130e-001	-4.949064e+001
2047702385	-2.888182e-001	-4.904522e+001
2047852393	-3.337824e-001	-4.855170e+001
2048002400	-2.791728e-001	-4.898746e+001
2048152408	-3.061778e-001	-4.879720e+001
2048302415	-3.010777e-001	-4.882790e+001
2048452423	-3.285308e-001	-4.879171e+001
2048602430	-3.124978e-001	-4.885196e+001
2048752438	-2.596459e-001	-4.954018e+001
2048902445	-3.174975e-001	-4.872667e+001
2049052453	-4.193687e-001	-4.854443e+001
2049202460	-2.594681e-001	-4.946321e+001
2049352468	-3.230348e-001	-4.861258e+001
2049502475	-2.907502e-001	-4.876991e+001
2049652483	-2.591077e-001	-4.953330e+001
2049802490	-2.818564e-001	-4.916740e+001
2049952498	-2.940355e-001	-4.892792e+001
2050102505	-2.855171e-001	-4.916713e+001
2050252513	-4.353280e-001	-4.856417e+001
2050402520	-2.603028e-001	-4.947951e+001
2050552528	-3.315203e-001	-4.924307e+001
2050702535	-4.503613e-001	-4.889792e+001
2050852543	-2.599666e-001	-4.965297e+001
2051002550	-4.415849e-001	-4.894138e+001
2051152558	-3.715135e-001	-4.884635e+001
2051302565	-2.817906e-001	-4.905206e+001
2051452573	-4.417018e-001	-4.852395e+001
2051602580	-2.915906e-001	-4.922131e+001
2051752588	-2.987785e-001	-4.907971e+001
2051902595	-3.988361e-001	-4.849612e+001
2052052603	-2.541040e-001	-4.938364e+001
2052202610	-3.066528e-001	-4.922607e+001
2052352618	-4.714377e-001	-4.865474e+001
2052502625	-2.728116e-001	-4.897943e+001
2052652633	-3.317077e-001	-4.853713e+001
2052802640	-2.527471e-001	-4.929743e+001
2052952648	-2.580415e-001	-4.904792e+001
2053102655	-3.114777e-001	-4.887019e+001
2053252663	-3.137973e-001	-4.897826e+001
2053402670	-2.821826e-001	-4.911118e+001
2053552678	-4.893579e-001	-4.878091e+001
2053702685	-2.669196e-001	-4.920038e+001
2053852693	-2.668063e-001	-4.937649e+001
2054002700	-4.505991e-001	-4.874958e+001
2054152708	-2.555985e-001	-4.958369e+001
2054302715	-3.276265e-001	-4.890735e+001
2054452723	-4.008108e-001	-4.846249e+001
2054602730	-4.235975e-001	-4.850963e+001
2054752738	-4.363715e-001	-4.867337e+001
2054902745	-2.554133e-001	-4.952034e+001
2055052753	-4.071058e-001	-4.896380e+001
2055202760	-3.962549e-001	-4.899656e+001
2055352768	-2.586857e-001	-4.963918e+001
2055502775	-3.267214e-001	-4.916041e+001
2055652783	-4.872310e-001	-4.879484e+001
2055802790	-2.878036e-001	-4.902835e+001
2055952798	-3.482515e-001	-4.863814e+001
2056102805	-2.709451e-001	-4.912985e+001
2056252813	-4.181004e-001	-4.850070e+001
2056402820	-2.843549e-001	-4.882439e+001
2056552828	-2.829834e-001	-4.895723e+001
2056702835	-4.307832e-001	-4.865124e+001
2056852843	-4.544642e-001	-4.879819e+001
2057002850	-2.492278e-001	-4.946725e+001
2057152858	-3.629471e-001	-4.889488e+001
2057302865	-3.824407e-001	-4.886566e+001
2057452873	-2.587493e-001	-4.952262e+001
2057602880	-4.981609e-001	-4.885054e+001
2057752888	-2.892319e-001	-4.911478e+001
2057902895	-4.375400e-001	-4.873077e+001
2058052903	-5.032077e-001	-4.888059e+001
2058202910	-2.917117e-001	-4.910810e+001
2058352918	-4.488339e-001	-4.890964e+001
2058502925	-3.665942e-001	-4.904168e+001
2058652933	-2.620091e-001	-4.939993e+001
2058802940	-4.852137e-001	-4.879768e+001
2058952948	-4.686472e-001	-4.884186e+001
2059102955	-3.440801e-001	-4.905607e+001
2059252963	-5.014176e-001	-4.887632e+001
2059402970	-3.524800e-001	-4.869142e+001
2059552978	-4.761279e-001	-4.873799e+001
2059702985	-4.679222e-001	-4.869471e+001
2059852993	-3.578205e-001	-4.884789e+001
2060003000	-4.216052e-001	-4.887807e+001
2060153008	-4.503211e-001	-4.870604e+001
2060303015	-2.569464e-001	-4.902409e+001
2060453023	-3.947561e-001	-4.864882e+001
2060603030	-3.766828e-001	-4.900731e+001
2060753038	-2.797693e-001	-4.942856e+001
2060903045	-5.004542e-001	-4.886750e+001
2061053053	-2.677362e-001	-4.914244e+001
2061203060	-4.399628e-001	-4.880362e+001
2061353068	-4.712184e-001	-4.879992e+001
2061503075	-2.488465e-001	-4.950401e+001
2061653083	-4.804284e-001	-4.887380e+001
2061803090	-3.413152e-001	-4.921648e+001
2061953098	-2.695080e-001	-4.945633e+001
2062103105	-4.952505e-001	-4.888922e+001
2062253113	-4.292634e-001	-4.883155e+001
2062403120	-3.309237e-001	-4.897424e+001
2062553128	-4.885019e-001	-4.885721e+001
2062703135	-3.233339e-001	-4.866801e+001
2062853143	-4.822262e-001	-4.875637e+001
2063003150	-4.858937e-001	-4.878597e+001
2063153158	-2.594642e-001	-4.935169e+001
2063303165	-4.541957e-001	-4.888683e+001
2063453173	-3.863384e-001	-4.900355e+001
2063603180	-2.467095e-001	-4.943701e+001
2063753188	-3.778682e-001	-4.877538e+001
2063903195	-3.386730e-001	-4.897482e+001
2064053203	-2.516706e-001	-4.969054e+001
2064203210	-4.569914e-001	-4.877824e+001
2064353218	-2.787257e-001	-4.895088e+001
2064503225	-4.197742e-001	-4.882269e+001
2064653233	-4.827592e-001	-4.888567e+001
2064803240	-2.576418e-001	-4.940759e+001
2064953248	-4.293162e-001	-4.867892e+001
2065103255	-2.974827e-001	-4.939168e+001
2065253263	-3.293499e-001	-4.935791e+001
2065403270	-5.039803e-001	-4.898331e+001
2065553278	-3.752235e-001	-4.903442e+001
2065703285	-3.570580e-001	-4.916245e+001
2065853293	-4.586741e-001	-4.887976e+001
2066003300	-2.823994e-001	-4.902033e+001
2066153308	-4.853364e-001	-4.884519e+001
2066303315	-3.513362e-001	-4.862938e+001
2066453323	-2.765204e-001	-4.920203e+001
2066603330	-5.030039e-001	-4.898081e+001
2066753338	-3.392224e-001	-4.923983e+001
2066903345	-3.993059e-001	-4.869864e+001
2067053353	-4.169592e-001	-4.879966e+001
2067203360	-2.623707e-001	-4.932834e+001
2067353368	-2.831218e-001	-4.941533e+001
2067503375	-4.475356e-001	-4.900345e+001
2067653383	-2.514357e-001	-4.973838e+001
2067803390	-4.277899e-001	-4.895076e+001
2067953398	-4.540067e-001	-4.893688e+001
2068103405	-2.523327e-001	-4.971841e+001
2068253413	-3.853208e-001	-4.893788e+001
2068403420	-2.836231e-001	-4.944753e+001
2068553428	-3.463159e-001	-4.932850e+001
2068703435	-5.079491e-001	-4.905679e+001
2068853443	-3.275768e-001	-4.909335e+001
2069003450	-3.881821e-001	-4.924658e+001
2069153458	-4.996395e-001	-4.903174e+001
2069303465	-2.674800e-001	-4.915099e+001
2069453473	-2.701884e-001	-4.909427e+001
2069603480	-4.970418e-001	-4.903107e+001
2069753488	-3.238029e-001	-4.908122e+001
2069903495	-4.963165e-001	-4.901430e+001
2070053503	-4.009022e-001	-4.908402e+001
2070203510	-3.762006e-001	-4.904098e+001
2070353518	-5.090405e-001	-4.910981e+001
2070503525	-3.722340e-001	-4.909601e+001
2070653533	-2.569131e-001	-4.981363e+001
2070803540	-4.699576e-001	-4.893668e+001
2070953548	-3.291507e-001	-4.884953e+001
2071103555	-4.635322e-001	-4.883233e+001
2071253563	-4.396529e-001	-4.902791e+001
2071403570	-2.591389e-001	-4.947935e+001
2071553578	-4.855518e-001	-4.898536e+001
2071703585	-2.800760e-001	-4.962518e+001
2071853593	-4.119095e-001	-4.923064e+001
