!Agilent Technologies,E5071C,MY46214220,A.11.31
!Date: Fri Sep 22 10:22:38 2017
!Data & Calibration Information:
!Freq	S11:SOLT1(ON)
!PortZ  Port1:50+j0
!Above PortZ is port z conversion or system Z0 setting when saving the data.
!When reading, reference impedance value at option line is always used.
# Hz S dB R 50
2000000000	-2.812046e-001	-3.370065e+001
2000150008	-2.705799e-001	-3.372853e+001
2000300015	-1.610471e-001	-3.421904e+001
2000450023	-2.964584e-001	-3.372792e+001
2000600030	-1.742204e-001	-3.404713e+001
2000750038	-3.033183e-001	-3.373239e+001
2000900045	-2.814147e-001	-3.379133e+001
2001050053	-1.592707e-001	-3.422485e+001
2001200060	-2.648021e-001	-3.371033e+001
2001350068	-2.144975e-001	-3.389004e+001
2001500075	-1.882450e-001	-3.402110e+001
2001650083	-3.446621e-001	-3.393016e+001
2001800090	-3.181117e-001	-3.376174e+001
2001950098	-2.617517e-001	-3.371134e+001
2002100105	-3.122591e-001	-3.374480e+001
2002250113	-1.752238e-001	-3.394978e+001
2002400120	-2.364304e-001	-3.360183e+001
2002550128	-1.863851e-001	-3.383395e+001
2002700135	-2.780708e-001	-3.368819e+001
2002850143	-2.611966e-001	-3.365073e+001
2003000150	-2.664432e-001	-3.363113e+001
2003150158	-2.632746e-001	-3.361871e+001
2003300165	-2.089695e-001	-3.374756e+001
2003450173	-2.799349e-001	-3.364759e+001
2003600180	-1.651687e-001	-3.423910e+001
2003750188	-2.646557e-001	-3.384626e+001
2003900195	-2.682945e-001	-3.363055e+001
2004050203	-3.167095e-001	-3.379213e+001
2004200210	-2.268659e-001	-3.369894e+001
2004350218	-1.920520e-001	-3.384542e+001
2004500225	-3.110681e-001	-3.389199e+001
2004650233	-1.917597e-001	-3.412220e+001
2004800240	-2.045206e-001	-3.415313e+001
2004950248	-3.188331e-001	-3.383619e+001
2005100255	-3.440198e-001	-3.403266e+001
2005250263	-2.164710e-001	-3.400133e+001
2005400270	-2.055131e-001	-3.379972e+001
2005550278	-2.895977e-001	-3.392443e+001
2005700285	-2.928427e-001	-3.390333e+001
2005850293	-1.637705e-001	-3.436298e+001
2006000300	-2.886613e-001	-3.394872e+001
2006150308	-3.433670e-001	-3.402806e+001
2006300315	-2.956233e-001	-3.384001e+001
2006450323	-1.795612e-001	-3.401858e+001
2006600330	-1.888035e-001	-3.409091e+001
2006750338	-2.875273e-001	-3.376823e+001
2006900345	-1.679960e-001	-3.442754e+001
2007050353	-1.742096e-001	-3.420525e+001
2007200360	-2.594100e-001	-3.397850e+001
2007350368	-3.466455e-001	-3.403837e+001
2007500375	-3.117982e-001	-3.387533e+001
2007650383	-2.083266e-001	-3.418008e+001
2007800390	-2.306920e-001	-3.398429e+001
2007950398	-2.221864e-001	-3.400241e+001
2008100405	-1.682331e-001	-3.444913e+001
2008250413	-1.748778e-001	-3.417670e+001
2008400420	-3.259050e-001	-3.402868e+001
2008550428	-2.782483e-001	-3.395393e+001
2008700435	-1.803024e-001	-3.408707e+001
2008850443	-3.050926e-001	-3.403944e+001
2009000450	-2.938331e-001	-3.405448e+001
2009150458	-1.857136e-001	-3.428354e+001
2009300465	-3.260026e-001	-3.401736e+001
2009450473	-2.882040e-001	-3.388065e+001
2009600480	-3.386925e-001	-3.405009e+001
2009750488	-3.154138e-001	-3.403067e+001
2009900495	-2.215116e-001	-3.407886e+001
2010050503	-3.413025e-001	-3.405894e+001
2010200510	-1.764074e-001	-3.442956e+001
2010350518	-2.043378e-001	-3.426172e+001
2010500525	-3.464184e-001	-3.411663e+001
2010650533	-2.370593e-001	-3.411676e+001
2010800540	-2.393493e-001	-3.410792e+001
2010950548	-2.720282e-001	-3.403054e+001
2011100555	-2.851202e-001	-3.406163e+001
2011250563	-2.565337e-001	-3.405681e+001
2011400570	-2.058413e-001	-3.411534e+001
2011550578	-2.135644e-001	-3.398551e+001
2011700585	-3.436138e-001	-3.414646e+001
2011850593	-2.299323e-001	-3.422978e+001
2012000600	-2.012906e-001	-3.431381e+001
2012150608	-3.535387e-001	-3.421261e+001
2012300615	-2.225036e-001	-3.438277e+001
2012450623	-2.643571e-001	-3.431103e+001
2012600630	-3.341545e-001	-3.414864e+001
2012750638	-1.979585e-001	-3.408888e+001
2012900645	-3.375661e-001	-3.412176e+001
2013050653	-3.203157e-001	-3.410687e+001
2013200660	-2.033926e-001	-3.434880e+001
2013350668	-3.537886e-001	-3.422961e+001
2013500675	-2.054448e-001	-3.444877e+001
2013650683	-2.134637e-001	-3.440806e+001
2013800690	-3.560050e-001	-3.424628e+001
2013950698	-2.132746e-001	-3.430166e+001
2014100705	-2.715883e-001	-3.428573e+001
2014250713	-3.169404e-001	-3.417592e+001
2014400720	-1.748679e-001	-3.454942e+001
2014550728	-1.745729e-001	-3.451978e+001
2014700735	-3.107421e-001	-3.405285e+001
2014850743	-1.765439e-001	-3.445226e+001
2015000750	-3.295309e-001	-3.420022e+001
2015150758	-2.429778e-001	-3.430533e+001
2015300765	-1.762918e-001	-3.458443e+001
2015450773	-3.516283e-001	-3.419945e+001
2015600780	-2.381947e-001	-3.441688e+001
2015750788	-2.159173e-001	-3.450443e+001
2015900795	-3.528328e-001	-3.424878e+001
2016050803	-2.461993e-001	-3.391422e+001
2016200810	-3.061463e-001	-3.414367e+001
2016350818	-3.470392e-001	-3.424044e+001
2016500825	-1.792700e-001	-3.452375e+001
2016650833	-3.551609e-001	-3.425402e+001
2016800840	-2.688693e-001	-3.436309e+001
2016950848	-1.747617e-001	-3.466036e+001
2017100855	-3.547791e-001	-3.427620e+001
2017250863	-2.660689e-001	-3.437848e+001
2017400870	-2.196396e-001	-3.441756e+001
2017550878	-3.533578e-001	-3.425069e+001
2017700885	-1.869619e-001	-3.445598e+001
2017850893	-1.872511e-001	-3.457471e+001
2018000900	-3.559798e-001	-3.426946e+001
2018150908	-1.855489e-001	-3.458851e+001
2018300915	-3.272964e-001	-3.426467e+001
2018450923	-2.792729e-001	-3.433655e+001
2018600930	-1.750587e-001	-3.468113e+001
2018750938	-3.445886e-001	-3.426243e+001
2018900945	-2.378531e-001	-3.444136e+001
2019050953	-2.217547e-001	-3.455086e+001
2019200960	-3.597539e-001	-3.431746e+001
2019350968	-2.229938e-001	-3.431933e+001
2019500975	-2.795350e-001	-3.423026e+001
2019650983	-3.569107e-001	-3.429348e+001
2019800990	-2.071464e-001	-3.437291e+001
2019950998	-3.588603e-001	-3.433760e+001
2020101005	-2.610878e-001	-3.440654e+001
2020251013	-1.820093e-001	-3.460462e+001
2020401020	-3.588715e-001	-3.431617e+001
2020551028	-3.030892e-001	-3.423158e+001
2020701035	-2.216380e-001	-3.435472e+001
2020851043	-3.536161e-001	-3.430607e+001
2021001050	-2.860022e-001	-3.414034e+001
2021151058	-1.806237e-001	-3.449816e+001
2021301065	-3.292123e-001	-3.422573e+001
2021451073	-1.729478e-001	-3.466404e+001
2021601080	-3.143220e-001	-3.426932e+001
2021751088	-2.916053e-001	-3.433780e+001
2021901095	-1.740684e-001	-3.474709e+001
2022051103	-3.120319e-001	-3.434507e+001
2022201110	-2.614114e-001	-3.442488e+001
2022351118	-1.941963e-001	-3.455341e+001
2022501125	-3.451318e-001	-3.428840e+001
2022651133	-1.903907e-001	-3.432459e+001
2022801140	-2.820590e-001	-3.418034e+001
2022951148	-3.205829e-001	-3.432985e+001
2023101155	-1.918746e-001	-3.460238e+001
2023251163	-3.502705e-001	-3.435263e+001
2023401170	-1.945762e-001	-3.455871e+001
2023551178	-2.301842e-001	-3.440032e+001
2023701185	-3.526416e-001	-3.437480e+001
2023851193	-2.210296e-001	-3.443290e+001
2024001200	-2.710660e-001	-3.445386e+001
2024151208	-3.186861e-001	-3.428966e+001
2024301215	-1.662799e-001	-3.454180e+001
2024451223	-3.186549e-001	-3.429176e+001
2024601230	-3.008245e-001	-3.436982e+001
2024751238	-1.865180e-001	-3.467165e+001
2024901245	-3.490998e-001	-3.440051e+001
2025051253	-2.187382e-001	-3.448594e+001
2025201260	-1.832083e-001	-3.471404e+001
2025351268	-3.493818e-001	-3.439968e+001
2025501275	-2.022506e-001	-3.463653e+001
2025651283	-2.325118e-001	-3.455914e+001
2025801290	-3.070316e-001	-3.439021e+001
2025951298	-1.634695e-001	-3.475843e+001
2026101305	-3.280351e-001	-3.441556e+001
2026251313	-2.949444e-001	-3.446395e+001
2026401320	-1.849878e-001	-3.475975e+001
2026551328	-3.476250e-001	-3.443418e+001
2026701335	-1.996217e-001	-3.465174e+001
2026851343	-2.157676e-001	-3.462865e+001
2027001350	-3.493348e-001	-3.445535e+001
2027151358	-2.422525e-001	-3.458439e+001
2027301365	-2.887888e-001	-3.449654e+001
2027451373	-3.257506e-001	-3.441125e+001
2027601380	-1.638513e-001	-3.481536e+001
2027751388	-2.571002e-001	-3.455305e+001
2027901395	-3.122648e-001	-3.444593e+001
2028051403	-1.645621e-001	-3.485239e+001
2028201410	-3.285628e-001	-3.445019e+001
2028351418	-2.535270e-001	-3.448861e+001
2028501425	-1.653573e-001	-3.479901e+001
2028651433	-3.432340e-001	-3.442505e+001
2028801440	-1.980643e-001	-3.466767e+001
2028951448	-2.301825e-001	-3.466311e+001
2029101455	-3.480827e-001	-3.448894e+001
2029251463	-1.706091e-001	-3.475152e+001
2029401470	-2.691387e-001	-3.455548e+001
2029551478	-3.093596e-001	-3.445933e+001
2029701485	-1.666652e-001	-3.485444e+001
2029851493	-3.337752e-001	-3.439680e+001
2030001500	-1.926511e-001	-3.471353e+001
2030151508	-1.898115e-001	-3.474824e+001
2030301515	-3.479556e-001	-3.451274e+001
2030451523	-2.451926e-001	-3.462615e+001
2030601530	-2.369080e-001	-3.464434e+001
2030751538	-3.484353e-001	-3.452263e+001
2030901545	-2.150886e-001	-3.454957e+001
2031051553	-1.905556e-001	-3.467719e+001
2031201560	-3.377694e-001	-3.446176e+001
2031351568	-1.874885e-001	-3.468760e+001
2031501575	-3.488735e-001	-3.453719e+001
2031651583	-2.382416e-001	-3.460800e+001
2031801590	-1.798566e-001	-3.482517e+001
2031951598	-3.470971e-001	-3.453845e+001
2032101605	-2.319685e-001	-3.466589e+001
2032251613	-2.084251e-001	-3.476598e+001
2032401620	-3.427444e-001	-3.453006e+001
2032551628	-2.173190e-001	-3.430182e+001
2032701635	-2.677977e-001	-3.425047e+001
2032851643	-3.286988e-001	-3.448664e+001
2033001650	-2.075770e-001	-3.444794e+001
2033151658	-3.395255e-001	-3.449690e+001
2033301665	-1.719898e-001	-3.463927e+001
2033451673	-2.007143e-001	-3.441516e+001
2033601680	-3.360817e-001	-3.449857e+001
2033751688	-2.468698e-001	-3.443802e+001
2033901695	-2.689977e-001	-3.454129e+001
2034051703	-3.485538e-001	-3.459899e+001
2034201710	-3.433617e-001	-3.455939e+001
2034351718	-1.671960e-001	-3.472269e+001
2034501725	-3.155568e-001	-3.439752e+001
2034651733	-3.100582e-001	-3.437330e+001
2034801740	-3.293976e-001	-3.451160e+001
2034951748	-2.586898e-001	-3.430702e+001
2035101755	-2.854146e-001	-3.437660e+001
2035251763	-3.061248e-001	-3.449108e+001
2035401770	-2.499318e-001	-3.461335e+001
2035551778	-2.023887e-001	-3.464754e+001
2035701785	-2.171707e-001	-3.449740e+001
2035851793	-2.322770e-001	-3.447315e+001
2036001800	-2.747116e-001	-3.429562e+001
2036151808	-2.517105e-001	-3.446924e+001
2036301815	-2.164643e-001	-3.456712e+001
2036451823	-2.716297e-001	-3.458666e+001
2036601830	-1.747116e-001	-3.478383e+001
2036751838	-2.428548e-001	-3.441327e+001
2036901845	-2.619920e-001	-3.453153e+001
2037051853	-2.586638e-001	-3.449191e+001
2037201860	-1.915775e-001	-3.445342e+001
2037351868	-2.019407e-001	-3.439585e+001
2037501875	-3.315904e-001	-3.454624e+001
2037651883	-1.917097e-001	-3.461126e+001
2037801890	-1.612215e-001	-3.478924e+001
2037951898	-2.506317e-001	-3.434258e+001
2038101905	-2.875800e-001	-3.437267e+001
2038251913	-2.035621e-001	-3.442782e+001
2038401920	-2.029473e-001	-3.452024e+001
2038551928	-2.117342e-001	-3.440244e+001
2038701935	-1.897511e-001	-3.462200e+001
2038851943	-1.601042e-001	-3.493885e+001
2039001950	-1.579989e-001	-3.475215e+001
2039151958	-3.289390e-001	-3.459656e+001
2039301965	-2.332254e-001	-3.460974e+001
2039451973	-1.575229e-001	-3.501993e+001
2039601980	-2.784029e-001	-3.451096e+001
2039751988	-2.153215e-001	-3.472868e+001
2039901995	-1.653182e-001	-3.499253e+001
2040052003	-2.975256e-001	-3.447396e+001
2040202010	-1.876506e-001	-3.460405e+001
2040352018	-3.258000e-001	-3.447813e+001
2040502025	-3.142543e-001	-3.449152e+001
2040652033	-1.765676e-001	-3.475904e+001
2040802040	-3.467297e-001	-3.465707e+001
2040952048	-1.954864e-001	-3.483619e+001
2041102055	-1.928730e-001	-3.482103e+001
2041252063	-3.448583e-001	-3.464577e+001
2041402070	-2.336796e-001	-3.476558e+001
2041552078	-2.058111e-001	-3.483257e+001
2041702085	-3.448575e-001	-3.465349e+001
2041852093	-3.194632e-001	-3.446489e+001
2042002100	-1.759374e-001	-3.474694e+001
2042152108	-2.379294e-001	-3.462958e+001
2042302115	-1.882237e-001	-3.467827e+001
2042452123	-2.865112e-001	-3.460201e+001
2042602130	-2.737634e-001	-3.450813e+001
2042752138	-1.565461e-001	-3.497168e+001
2042902145	-2.391405e-001	-3.469372e+001
2043052153	-2.281157e-001	-3.457885e+001
2043202160	-1.665283e-001	-3.499048e+001
2043352168	-2.616585e-001	-3.439352e+001
2043502175	-2.495521e-001	-3.441216e+001
2043652183	-2.212718e-001	-3.448815e+001
2043802190	-2.130294e-001	-3.447225e+001
2043952198	-2.334305e-001	-3.433801e+001
2044102205	-2.799035e-001	-3.434945e+001
2044252213	-1.659183e-001	-3.485626e+001
2044402220	-1.931018e-001	-3.454061e+001
2044552228	-2.434311e-001	-3.432343e+001
2044702235	-1.928540e-001	-3.451579e+001
2044852243	-2.147715e-001	-3.438040e+001
2045002250	-2.139325e-001	-3.439914e+001
2045152258	-2.377757e-001	-3.435477e+001
2045302265	-2.120544e-001	-3.449717e+001
2045452273	-1.543194e-001	-3.497707e+001
2045602280	-1.809010e-001	-3.462551e+001
2045752288	-2.725725e-001	-3.434894e+001
2045902295	-1.667725e-001	-3.479027e+001
2046052303	-1.650338e-001	-3.468671e+001
2046202310	-2.376442e-001	-3.437745e+001
2046352318	-2.020604e-001	-3.463216e+001
2046502325	-1.570229e-001	-3.492854e+001
2046652333	-1.799320e-001	-3.464624e+001
2046802340	-1.930496e-001	-3.467487e+001
2046952348	-2.961672e-001	-3.439533e+001
2047102355	-1.882342e-001	-3.463605e+001
2047252363	-1.678995e-001	-3.486064e+001
2047402370	-3.088093e-001	-3.448847e+001
2047552378	-1.564804e-001	-3.499646e+001
2047702385	-1.790320e-001	-3.469593e+001
2047852393	-2.190680e-001	-3.436547e+001
2048002400	-1.737576e-001	-3.465050e+001
2048152408	-1.968282e-001	-3.453377e+001
2048302415	-1.918499e-001	-3.455790e+001
2048452423	-2.124782e-001	-3.454753e+001
2048602430	-2.002787e-001	-3.458811e+001
2048752438	-1.533049e-001	-3.504448e+001
2048902445	-2.063328e-001	-3.450416e+001
2049052453	-2.806581e-001	-3.443888e+001
2049202460	-1.546239e-001	-3.499497e+001
2049352468	-2.129697e-001	-3.443488e+001
2049502475	-1.861898e-001	-3.452939e+001
2049652483	-1.542800e-001	-3.506021e+001
2049802490	-1.757355e-001	-3.482054e+001
2049952498	-1.879160e-001	-3.465331e+001
2050102505	-1.774876e-001	-3.481122e+001
2050252513	-2.947972e-001	-3.447067e+001
2050402520	-1.558408e-001	-3.502861e+001
2050552528	-2.104974e-001	-3.491324e+001
2050702535	-3.001385e-001	-3.473574e+001
2050852543	-1.531425e-001	-3.515556e+001
2051002550	-2.952852e-001	-3.475677e+001
2051152558	-2.449351e-001	-3.465583e+001
2051302565	-1.758208e-001	-3.476410e+001
2051452573	-3.002670e-001	-3.446291e+001
2051602580	-1.817628e-001	-3.489504e+001
2051752588	-1.897349e-001	-3.479275e+001
2051902595	-2.701835e-001	-3.443175e+001
2052052603	-1.510640e-001	-3.498526e+001
2052202610	-1.944492e-001	-3.490701e+001
2052352618	-3.202946e-001	-3.458457e+001
2052502625	-1.727650e-001	-3.470802e+001
2052652633	-2.200747e-001	-3.443021e+001
2052802640	-1.542282e-001	-3.493405e+001
2052952648	-1.607743e-001	-3.477050e+001
2053102655	-2.035624e-001	-3.466753e+001
2053252663	-2.040060e-001	-3.474260e+001
2053402670	-1.801832e-001	-3.482124e+001
2053552678	-3.308953e-001	-3.471486e+001
2053702685	-1.675214e-001	-3.487788e+001
2053852693	-1.634751e-001	-3.501389e+001
2054002700	-3.045565e-001	-3.466963e+001
2054152708	-1.524714e-001	-3.516014e+001
2054302715	-2.140221e-001	-3.471358e+001
2054452723	-2.726260e-001	-3.443378e+001
2054602730	-2.892424e-001	-3.448868e+001
2054752738	-2.963366e-001	-3.462006e+001
2054902745	-1.541118e-001	-3.512106e+001
2055052753	-2.723044e-001	-3.482087e+001
2055202760	-2.649084e-001	-3.483285e+001
2055352768	-1.547660e-001	-3.521154e+001
2055502775	-2.106869e-001	-3.491717e+001
2055652783	-3.319331e-001	-3.475041e+001
2055802790	-1.850950e-001	-3.479178e+001
2055952798	-2.333601e-001	-3.454356e+001
2056102805	-1.712942e-001	-3.486284e+001
2056252813	-2.864447e-001	-3.449907e+001
2056402820	-1.866350e-001	-3.464820e+001
2056552828	-1.845798e-001	-3.475193e+001
2056702835	-2.925011e-001	-3.463010e+001
2056852843	-3.081299e-001	-3.475039e+001
2057002850	-1.507514e-001	-3.510336e+001
2057152858	-2.407877e-001	-3.475338e+001
2057302865	-2.552821e-001	-3.475254e+001
2057452873	-1.596230e-001	-3.515217e+001
2057602880	-3.401226e-001	-3.480248e+001
2057752888	-1.852068e-001	-3.488836e+001
2057902895	-2.980437e-001	-3.468866e+001
2058052903	-3.429336e-001	-3.483572e+001
2058202910	-1.878802e-001	-3.487584e+001
2058352918	-3.044751e-001	-3.483330e+001
2058502925	-2.420343e-001	-3.488087e+001
2058652933	-1.633175e-001	-3.507038e+001
2058802940	-3.321928e-001	-3.478429e+001
2058952948	-3.194465e-001	-3.480556e+001
2059102955	-2.271142e-001	-3.488896e+001
2059252963	-3.423810e-001	-3.485369e+001
2059402970	-2.361639e-001	-3.462541e+001
2059552978	-3.256638e-001	-3.472909e+001
2059702985	-3.184281e-001	-3.469868e+001
2059852993	-2.389035e-001	-3.474451e+001
2060003000	-2.844981e-001	-3.481627e+001
2060153008	-3.084271e-001	-3.470136e+001
2060303015	-1.661233e-001	-3.480825e+001
2060453023	-2.683646e-001	-3.462227e+001
2060603030	-2.519936e-001	-3.488200e+001
2060753038	-1.763726e-001	-3.513026e+001
2060903045	-3.399312e-001	-3.485457e+001
2061053053	-1.696307e-001	-3.491992e+001
2061203060	-2.997917e-001	-3.476961e+001
2061353068	-3.229261e-001	-3.479648e+001
2061503075	-1.539446e-001	-3.516276e+001
2061653083	-3.291850e-001	-3.485648e+001
2061803090	-2.249344e-001	-3.502796e+001
2061953098	-1.680758e-001	-3.514551e+001
2062103105	-3.382673e-001	-3.486910e+001
2062253113	-2.908902e-001	-3.478719e+001
2062403120	-2.205596e-001	-3.483035e+001
2062553128	-3.369096e-001	-3.485350e+001
2062703135	-2.190568e-001	-3.462758e+001
2062853143	-3.305105e-001	-3.477388e+001
2063003150	-3.340228e-001	-3.479597e+001
2063153158	-1.610986e-001	-3.508716e+001
2063303165	-3.080727e-001	-3.485109e+001
2063453173	-2.590666e-001	-3.490453e+001
2063603180	-1.528221e-001	-3.512272e+001
2063753188	-2.566732e-001	-3.471378e+001
2063903195	-2.237735e-001	-3.484902e+001
2064053203	-1.528095e-001	-3.530602e+001
2064203210	-3.142008e-001	-3.478580e+001
2064353218	-1.818967e-001	-3.480158e+001
2064503225	-2.864578e-001	-3.478391e+001
2064653233	-3.285075e-001	-3.486942e+001
2064803240	-1.600561e-001	-3.511798e+001
2064953248	-2.942408e-001	-3.470000e+001
2065103255	-1.910133e-001	-3.513034e+001
2065253263	-2.126526e-001	-3.512448e+001
2065403270	-3.434327e-001	-3.495563e+001
2065553278	-2.504576e-001	-3.491564e+001
2065703285	-2.353415e-001	-3.499439e+001
2065853293	-3.111473e-001	-3.483761e+001
2066003300	-1.844940e-001	-3.485198e+001
2066153308	-3.318588e-001	-3.484576e+001
2066303315	-2.385560e-001	-3.461103e+001
2066453323	-1.759670e-001	-3.497458e+001
2066603330	-3.421373e-001	-3.495480e+001
2066753338	-2.203702e-001	-3.502804e+001
2066903345	-2.705686e-001	-3.467618e+001
2067053353	-2.820027e-001	-3.476717e+001
2067203360	-1.646369e-001	-3.505275e+001
2067353368	-1.766322e-001	-3.513451e+001
2067503375	-3.010930e-001	-3.492797e+001
2067653383	-1.531747e-001	-3.533481e+001
2067803390	-2.886640e-001	-3.488837e+001
2067953398	-3.093457e-001	-3.489297e+001
2068103405	-1.507787e-001	-3.534427e+001
2068253413	-2.575145e-001	-3.484873e+001
2068403420	-1.792296e-001	-3.514393e+001
2068553428	-2.267571e-001	-3.509658e+001
2068703435	-3.441992e-001	-3.499844e+001
2068853443	-2.136536e-001	-3.492157e+001
2069003450	-2.564085e-001	-3.506418e+001
2069153458	-3.381739e-001	-3.497285e+001
2069303465	-1.714145e-001	-3.490499e+001
2069453473	-1.726137e-001	-3.488197e+001
2069603480	-3.364857e-001	-3.496603e+001
2069753488	-2.139658e-001	-3.490280e+001
2069903495	-3.348521e-001	-3.497802e+001
2070053503	-2.657726e-001	-3.496265e+001
2070203510	-2.520710e-001	-3.490948e+001
2070353518	-3.450940e-001	-3.504268e+001
2070503525	-2.469810e-001	-3.493495e+001
2070653533	-1.523632e-001	-3.537948e+001
2070803540	-3.202543e-001	-3.487738e+001
2070953548	-2.204138e-001	-3.474502e+001
2071103555	-3.127237e-001	-3.481562e+001
2071253563	-2.953981e-001	-3.492944e+001
2071403570	-1.620583e-001	-3.514649e+001
2071553578	-3.284820e-001	-3.493197e+001
2071703585	-1.706102e-001	-3.525588e+001
2071853593	-2.727632e-001	-3.505242e+001
