!Agilent Technologies,E5071C,MY46214220,A.11.31
!Date: Fri Sep 22 12:39:47 2017
!Data & Calibration Information:
!Freq	S11:SOLT1(ON)
!PortZ  Port1:50+j0
!Above PortZ is port z conversion or system Z0 setting when saving the data.
!When reading, reference impedance value at option line is always used.
# Hz S dB R 50
2000000000	-2.914645e+000	-4.380142e+001
2000300030	-2.821035e+000	-4.479040e+001
2000600060	-2.821857e+000	-4.455730e+001
2000900090	-2.921308e+000	-4.391520e+001
2001200120	-2.894505e+000	-4.384336e+001
2001500150	-2.837763e+000	-4.445728e+001
2001800180	-2.958912e+000	-4.376572e+001
2002100210	-2.947205e+000	-4.374226e+001
2002400240	-2.857891e+000	-4.384482e+001
2002700270	-2.908207e+000	-4.379691e+001
2003000300	-2.893539e+000	-4.379285e+001
2003300330	-2.838555e+000	-4.410988e+001
2003600360	-2.828760e+000	-4.479098e+001
2003900390	-2.892272e+000	-4.377990e+001
2004200420	-2.853185e+000	-4.400251e+001
2004500450	-2.958529e+000	-4.392280e+001
2004800480	-2.860419e+000	-4.455747e+001
2005100510	-3.006154e+000	-4.396771e+001
2005400540	-2.836382e+000	-4.418266e+001
2005700570	-2.938656e+000	-4.400737e+001
2006000600	-2.936464e+000	-4.407468e+001
2006300630	-2.936058e+000	-4.391208e+001
2006600660	-2.839523e+000	-4.453424e+001
2006900690	-2.840997e+000	-4.497866e+001
2007200720	-2.907659e+000	-4.418082e+001
2007500750	-2.959160e+000	-4.389919e+001
2007800780	-2.876504e+000	-4.429310e+001
2008100810	-2.844978e+000	-4.501387e+001
2008400840	-2.985409e+000	-4.402632e+001
2008700870	-2.829087e+000	-4.457408e+001
2009000900	-2.950959e+000	-4.416306e+001
2009300930	-2.982676e+000	-4.400864e+001
2009600960	-3.003304e+000	-4.400743e+001
2009900990	-2.875034e+000	-4.442433e+001
2010201020	-2.853903e+000	-4.496338e+001
2010501050	-3.012369e+000	-4.406645e+001
2010801080	-2.894597e+000	-4.440527e+001
2011101110	-2.942222e+000	-4.419972e+001
2011401140	-2.854266e+000	-4.454032e+001
2011701170	-3.011322e+000	-4.409040e+001
2012001200	-2.869951e+000	-4.474108e+001
2012301230	-2.896358e+000	-4.474598e+001
2012601260	-2.998336e+000	-4.413130e+001
2012901290	-3.002179e+000	-4.411975e+001
2013201320	-2.870590e+000	-4.479860e+001
2013501350	-2.878410e+000	-4.490821e+001
2013801380	-3.029628e+000	-4.417666e+001
2014101410	-2.940531e+000	-4.451217e+001
2014401440	-2.854817e+000	-4.513521e+001
2014701470	-2.963306e+000	-4.413199e+001
2015001500	-2.996115e+000	-4.423002e+001
2015301530	-2.860186e+000	-4.517407e+001
2015601560	-2.913862e+000	-4.477821e+001
2015901590	-3.029068e+000	-4.419945e+001
2016201620	-2.968563e+000	-4.424339e+001
2016501650	-2.859776e+000	-4.511029e+001
2016801680	-2.943340e+000	-4.462236e+001
2017101710	-3.030689e+000	-4.425786e+001
2017401740	-2.893730e+000	-4.485303e+001
2017701770	-2.860562e+000	-4.501064e+001
2018001800	-3.030434e+000	-4.424627e+001
2018301830	-3.004403e+000	-4.432860e+001
2018601860	-2.868833e+000	-4.531302e+001
2018901890	-2.919691e+000	-4.482201e+001
2019201920	-3.042935e+000	-4.428713e+001
2019501950	-2.947448e+000	-4.446621e+001
2019801980	-2.883263e+000	-4.485472e+001
2020102010	-2.943878e+000	-4.472130e+001
2020402040	-3.043171e+000	-4.432596e+001
2020702070	-2.897525e+000	-4.479873e+001
2021002100	-2.950470e+000	-4.437205e+001
2021302130	-3.008313e+000	-4.431176e+001
2021602160	-2.994021e+000	-4.440315e+001
2021902190	-2.877881e+000	-4.538742e+001
2022202220	-2.950215e+000	-4.474256e+001
2022502250	-3.031724e+000	-4.432342e+001
2022802280	-2.957413e+000	-4.439937e+001
2023102310	-2.888633e+000	-4.514639e+001
2023402340	-2.888064e+000	-4.508839e+001
2023702370	-3.047277e+000	-4.437813e+001
2024002400	-2.965938e+000	-4.473892e+001
2024302430	-2.857564e+000	-4.516502e+001
2024602460	-2.989858e+000	-4.453419e+001
2024902490	-3.048429e+000	-4.440856e+001
2025202520	-2.889962e+000	-4.528728e+001
2025502550	-2.906242e+000	-4.514912e+001
2025802580	-3.000590e+000	-4.452127e+001
2026102610	-3.024293e+000	-4.447911e+001
2026402640	-2.898002e+000	-4.531908e+001
2026702670	-2.902806e+000	-4.515907e+001
2027002700	-3.053777e+000	-4.443634e+001
2027302730	-2.990210e+000	-4.469438e+001
2027602760	-2.879556e+000	-4.543475e+001
2027902790	-3.009942e+000	-4.455260e+001
2028202820	-3.029356e+000	-4.449336e+001
2028502850	-2.878627e+000	-4.541234e+001
2028802880	-2.905776e+000	-4.515042e+001
2029102910	-3.051803e+000	-4.447458e+001
2029402940	-2.973685e+000	-4.478768e+001
2029702970	-2.883411e+000	-4.545747e+001
2030003000	-2.903086e+000	-4.521415e+001
2030303030	-3.057816e+000	-4.449309e+001
2030603060	-2.947146e+000	-4.499310e+001
2030903090	-2.916573e+000	-4.496246e+001
2031203120	-3.038852e+000	-4.447122e+001
2031503150	-3.058148e+000	-4.451627e+001
2031803180	-2.898732e+000	-4.536843e+001
2032103210	-2.940405e+000	-4.502090e+001
2032403240	-3.052264e+000	-4.450844e+001
2032703270	-2.952892e+000	-4.444416e+001
2033003300	-2.897137e+000	-4.485336e+001
2033303330	-2.872643e+000	-4.519880e+001
2033603360	-3.041910e+000	-4.448402e+001
2033903390	-2.975343e+000	-4.476448e+001
2034203420	-3.052633e+000	-4.453329e+001
2034503450	-3.015434e+000	-4.444725e+001
2034803480	-3.037410e+000	-4.450000e+001
2035103510	-2.980475e+000	-4.449978e+001
2035403540	-2.959286e+000	-4.487957e+001
2035703570	-2.914568e+000	-4.484150e+001
2036003600	-2.961366e+000	-4.445207e+001
2036303630	-2.920749e+000	-4.492879e+001
2036603660	-2.892195e+000	-4.528888e+001
2036903690	-2.968751e+000	-4.473307e+001
2037203720	-2.884927e+000	-4.487379e+001
2037503750	-3.040511e+000	-4.452091e+001
2037803780	-2.876254e+000	-4.533193e+001
2038103810	-2.981991e+000	-4.446758e+001
2038403840	-2.901367e+000	-4.489266e+001
2038703870	-2.893344e+000	-4.506042e+001
2039003900	-2.869500e+000	-4.527693e+001
2039303930	-2.940916e+000	-4.490845e+001
2039603960	-2.982803e+000	-4.463296e+001
2039903990	-2.897626e+000	-4.553001e+001
2040204020	-2.892359e+000	-4.503989e+001
2040504050	-3.018921e+000	-4.449441e+001
2040804080	-3.065252e+000	-4.457272e+001
2041104110	-2.915971e+000	-4.524497e+001
2041404140	-2.955960e+000	-4.503590e+001
2041704170	-3.070295e+000	-4.454999e+001
2042004200	-2.893012e+000	-4.520878e+001
2042304230	-2.901124e+000	-4.509604e+001
2042604260	-2.977015e+000	-4.462423e+001
2042904290	-2.954931e+000	-4.492741e+001
2043204320	-2.901872e+000	-4.547935e+001
2043504350	-2.947398e+000	-4.458793e+001
2043804380	-2.912782e+000	-4.475641e+001
2044104410	-2.973165e+000	-4.442326e+001
2044404440	-2.897007e+000	-4.489698e+001
2044704470	-2.892896e+000	-4.486558e+001
2045004500	-2.908214e+000	-4.467538e+001
2045304530	-2.912126e+000	-4.480158e+001
2045604560	-2.893338e+000	-4.501239e+001
2045904590	-2.888204e+000	-4.524969e+001
2046204620	-2.931986e+000	-4.457043e+001
2046504650	-2.889961e+000	-4.542322e+001
2046804680	-2.907394e+000	-4.502953e+001
2047104710	-2.899079e+000	-4.501561e+001
2047404740	-3.018164e+000	-4.446839e+001
2047704770	-2.894871e+000	-4.507921e+001
2048004800	-2.886519e+000	-4.505753e+001
2048304830	-2.898474e+000	-4.490228e+001
2048604860	-2.909501e+000	-4.492598e+001
2048904890	-2.909657e+000	-4.478641e+001
2049204920	-2.892464e+000	-4.549406e+001
2049504950	-2.889583e+000	-4.490427e+001
2049804980	-2.900758e+000	-4.522979e+001
2050105011	-2.907165e+000	-4.522394e+001
2050405041	-2.899593e+000	-4.553681e+001
2050705071	-3.027983e+000	-4.474958e+001
2051005101	-3.027041e+000	-4.477224e+001
2051305131	-2.900868e+000	-4.515139e+001
2051605161	-2.917350e+000	-4.530223e+001
2051905191	-2.976173e+000	-4.451333e+001
2052205221	-2.931838e+000	-4.524502e+001
2052505251	-2.894061e+000	-4.510542e+001
2052805281	-2.892132e+000	-4.540712e+001
2053105311	-2.924510e+000	-4.496854e+001
2053405341	-2.912134e+000	-4.520522e+001
2053705371	-2.903680e+000	-4.532942e+001
2054005401	-3.034810e+000	-4.465129e+001
2054305431	-2.941264e+000	-4.497012e+001
2054605461	-3.008536e+000	-4.449023e+001
2054905491	-2.909079e+000	-4.560843e+001
2055205521	-3.004364e+000	-4.495926e+001
2055505551	-2.954619e+000	-4.520336e+001
2055805581	-2.916482e+000	-4.513959e+001
2056105611	-2.907223e+000	-4.525802e+001
2056405641	-2.908539e+000	-4.499299e+001
2056705671	-3.021707e+000	-4.460618e+001
2057005701	-2.906422e+000	-4.558231e+001
2057305731	-2.989935e+000	-4.487305e+001
2057605761	-3.084495e+000	-4.465371e+001
2057905791	-3.036732e+000	-4.465478e+001
2058205821	-2.932884e+000	-4.523568e+001
2058505851	-2.986786e+000	-4.505094e+001
2058805881	-3.078400e+000	-4.464416e+001
2059105911	-2.973446e+000	-4.509310e+001
2059405941	-2.965809e+000	-4.478409e+001
2059705971	-3.057824e+000	-4.458477e+001
2060006001	-3.031142e+000	-4.481358e+001
2060306031	-2.902241e+000	-4.522195e+001
2060606061	-2.999488e+000	-4.501358e+001
2060906091	-3.090526e+000	-4.468671e+001
2061206121	-3.046114e+000	-4.472913e+001
2061506151	-2.921538e+000	-4.560987e+001
2061806181	-2.980323e+000	-4.525400e+001
2062106211	-3.095874e+000	-4.469668e+001
2062406241	-2.965342e+000	-4.504761e+001
2062706271	-2.948234e+000	-4.482877e+001
2063006301	-3.079833e+000	-4.466224e+001
2063306331	-3.063401e+000	-4.478421e+001
2063606361	-2.916803e+000	-4.557444e+001
2063906391	-2.970725e+000	-4.507908e+001
2064206421	-3.060105e+000	-4.467052e+001
2064506451	-3.036207e+000	-4.477081e+001
2064806481	-2.926343e+000	-4.553876e+001
2065106511	-2.956703e+000	-4.546436e+001
2065406541	-3.110088e+000	-4.477934e+001
2065706571	-3.000229e+000	-4.517028e+001
2066006601	-2.931920e+000	-4.518140e+001
2066306631	-2.968706e+000	-4.474866e+001
2066606661	-3.107879e+000	-4.478261e+001
2066906691	-3.014566e+000	-4.470481e+001
2067206721	-2.928993e+000	-4.545651e+001
2067506751	-3.063356e+000	-4.490324e+001
2067806781	-3.050752e+000	-4.486449e+001
2068106811	-2.937459e+000	-4.579271e+001
2068406841	-2.953045e+000	-4.550186e+001
2068706871	-3.117375e+000	-4.479461e+001
2069006901	-3.030798e+000	-4.515462e+001
2069306931	-2.925822e+000	-4.530079e+001
2069606961	-3.105502e+000	-4.481352e+001
2069906991	-3.108266e+000	-4.479553e+001
2070207021	-3.017197e+000	-4.499102e+001
2070507051	-3.006944e+000	-4.507057e+001
2070807081	-3.080354e+000	-4.474046e+001
2071107111	-3.074299e+000	-4.467478e+001
2071407141	-2.935381e+000	-4.553839e+001
2071707171	-2.958494e+000	-4.564136e+001
2072007201	-3.061412e+000	-4.486990e+001
2072307231	-3.121532e+000	-4.481213e+001
2072607261	-3.030223e+000	-4.479870e+001
2072907291	-2.936274e+000	-4.548510e+001
2073207321	-3.114822e+000	-4.484635e+001
2073507351	-3.129093e+000	-4.485690e+001
2073807381	-3.057327e+000	-4.495088e+001
2074107411	-3.127120e+000	-4.483439e+001
2074407441	-3.033428e+000	-4.509718e+001
2074707471	-3.030149e+000	-4.477197e+001
2075007501	-2.962602e+000	-4.593096e+001
2075307531	-2.986718e+000	-4.529306e+001
2075607561	-3.008742e+000	-4.525445e+001
2075907591	-3.133061e+000	-4.490700e+001
2076207621	-3.015945e+000	-4.554072e+001
2076507651	-3.011294e+000	-4.523154e+001
2076807681	-3.124225e+000	-4.487687e+001
2077107711	-3.137098e+000	-4.496539e+001
2077407741	-2.966793e+000	-4.558064e+001
2077707771	-3.062393e+000	-4.520474e+001
2078007801	-3.081296e+000	-4.497530e+001
2078307831	-2.975227e+000	-4.600779e+001
2078607861	-2.967241e+000	-4.586405e+001
2078907891	-3.120771e+000	-4.496698e+001
2079207921	-3.057415e+000	-4.530981e+001
2079507951	-2.974296e+000	-4.604638e+001
2079807981	-3.075132e+000	-4.501420e+001
2080108011	-3.146156e+000	-4.501646e+001
2080408041	-3.142375e+000	-4.495073e+001
2080708071	-2.977680e+000	-4.531815e+001
2081008101	-3.107503e+000	-4.509624e+001
2081308131	-3.088020e+000	-4.508965e+001
2081608161	-2.980665e+000	-4.611307e+001
2081908191	-2.997612e+000	-4.534821e+001
2082208221	-3.021082e+000	-4.503589e+001
2082508251	-3.108155e+000	-4.516615e+001
2082808281	-2.988903e+000	-4.614274e+001
2083108311	-3.135556e+000	-4.499627e+001
2083408341	-3.155098e+000	-4.502596e+001
2083708371	-3.136170e+000	-4.505844e+001
2084008401	-3.010317e+000	-4.518282e+001
2084308431	-3.160625e+000	-4.510109e+001
2084608461	-3.059552e+000	-4.509598e+001
2084908491	-2.990868e+000	-4.615539e+001
2085208521	-3.079166e+000	-4.497752e+001
2085508551	-2.998091e+000	-4.558381e+001
2085808581	-3.103730e+000	-4.515095e+001
2086108611	-2.990804e+000	-4.603857e+001
2086408641	-3.162252e+000	-4.512245e+001
2086708671	-3.081831e+000	-4.507329e+001
2087008701	-3.122783e+000	-4.521390e+001
2087308731	-3.027138e+000	-4.536101e+001
2087608761	-3.132262e+000	-4.512663e+001
2087908791	-3.024252e+000	-4.538524e+001
2088208821	-2.999784e+000	-4.590214e+001
2088508851	-3.022104e+000	-4.559397e+001
2088808881	-2.990120e+000	-4.581352e+001
2089108911	-3.143216e+000	-4.511305e+001
2089408941	-3.061739e+000	-4.575766e+001
2089708971	-3.170832e+000	-4.517129e+001
2090009001	-3.097454e+000	-4.524158e+001
2090309031	-3.130790e+000	-4.540240e+001
2090609061	-3.015054e+000	-4.596587e+001
2090909091	-3.101043e+000	-4.519446e+001
2091209121	-3.046658e+000	-4.553156e+001
2091509151	-3.028771e+000	-4.564225e+001
2091809181	-3.009569e+000	-4.591932e+001
2092109211	-3.087178e+000	-4.526118e+001
2092409241	-3.105738e+000	-4.525543e+001
2092709271	-3.096653e+000	-4.564523e+001
2093009301	-3.005182e+000	-4.599558e+001
2093309331	-3.093735e+000	-4.538120e+001
2093609361	-3.120872e+000	-4.543209e+001
2093909391	-3.090174e+000	-4.566250e+001
2094209421	-3.032355e+000	-4.605988e+001
2094509451	-3.114223e+000	-4.525469e+001
2094809481	-3.017965e+000	-4.592462e+001
2095109511	-3.072496e+000	-4.537148e+001
2095409541	-3.040985e+000	-4.580219e+001
2095709571	-3.194814e+000	-4.534649e+001
2096009601	-3.147576e+000	-4.556731e+001
2096309631	-3.088260e+000	-4.565756e+001
2096609661	-3.106260e+000	-4.567098e+001
2096909691	-3.158048e+000	-4.548183e+001
2097209721	-3.162753e+000	-4.528058e+001
2097509751	-3.054068e+000	-4.583810e+001
2097809781	-3.117871e+000	-4.563638e+001
2098109811	-3.197379e+000	-4.537039e+001
2098409841	-3.141290e+000	-4.558638e+001
2098709871	-3.032567e+000	-4.641018e+001
2099009901	-3.202016e+000	-4.542555e+001
2099309931	-3.140814e+000	-4.570563e+001
2099609961	-3.092086e+000	-4.580135e+001
2099909991	-3.040703e+000	-4.628938e+001
2100210021	-3.169226e+000	-4.558424e+001
2100510051	-3.128943e+000	-4.578740e+001
2100810081	-3.042817e+000	-4.642360e+001
2101110111	-3.087334e+000	-4.565845e+001
2101410141	-3.190580e+000	-4.540941e+001
2101710171	-3.117322e+000	-4.591289e+001
2102010201	-3.042527e+000	-4.636707e+001
2102310231	-3.212312e+000	-4.552630e+001
2102610261	-3.147795e+000	-4.588151e+001
2102910291	-3.090109e+000	-4.586924e+001
2103210321	-3.075233e+000	-4.609263e+001
2103510351	-3.105130e+000	-4.577767e+001
2103810381	-3.158096e+000	-4.564281e+001
2104110411	-3.039377e+000	-4.637530e+001
2104410441	-3.043538e+000	-4.593753e+001
2104710471	-3.032262e+000	-4.597533e+001
2105010501	-3.150875e+000	-4.581887e+001
2105310531	-3.045057e+000	-4.649566e+001
2105610561	-3.177657e+000	-4.560368e+001
2105910591	-3.173881e+000	-4.576275e+001
2106210621	-3.052124e+000	-4.623194e+001
2106510651	-3.073732e+000	-4.603262e+001
2106810681	-3.086563e+000	-4.609975e+001
2107110711	-3.213215e+000	-4.547836e+001
2107410741	-3.091282e+000	-4.584918e+001
2107710771	-3.122972e+000	-4.576919e+001
2108010801	-3.055313e+000	-4.664566e+001
2108310831	-3.192923e+000	-4.559794e+001
2108610861	-3.149211e+000	-4.581672e+001
2108910891	-3.185839e+000	-4.550913e+001
2109210921	-3.070543e+000	-4.577055e+001
2109510951	-3.181085e+000	-4.556043e+001
2109810981	-3.120798e+000	-4.557930e+001
2110111011	-3.095585e+000	-4.629542e+001
2110411041	-3.237635e+000	-4.562573e+001
2110711071	-3.108550e+000	-4.563417e+001
2111011101	-3.112244e+000	-4.594078e+001
2111311131	-3.066283e+000	-4.672036e+001
2111611161	-3.213902e+000	-4.562682e+001
2111911191	-3.090939e+000	-4.634386e+001
2112211221	-3.221750e+000	-4.563624e+001
2112511251	-3.116914e+000	-4.578688e+001
2112811281	-3.224019e+000	-4.571564e+001
2113111311	-3.058113e+000	-4.651286e+001
2113411341	-3.131972e+000	-4.618500e+001
2113711371	-3.079630e+000	-4.601021e+001
2114011401	-3.138698e+000	-4.579049e+001
2114311431	-3.125195e+000	-4.625985e+001
2114611461	-3.077314e+000	-4.684451e+001
2114911491	-3.243903e+000	-4.573712e+001
2115211521	-3.179686e+000	-4.582322e+001
2115511551	-3.244684e+000	-4.579141e+001
2115811581	-3.135179e+000	-4.631741e+001
2116111611	-3.234516e+000	-4.577331e+001
2116411641	-3.145626e+000	-4.562069e+001
2116711671	-3.096651e+000	-4.614097e+001
2117011701	-3.078541e+000	-4.628263e+001
2117311731	-3.096004e+000	-4.632599e+001
2117611761	-3.190778e+000	-4.583377e+001
2117911791	-3.102531e+000	-4.651376e+001
2118211821	-3.084012e+000	-4.625702e+001
2118511851	-3.219664e+000	-4.590460e+001
2118811881	-3.234698e+000	-4.580028e+001
2119111911	-3.151135e+000	-4.586910e+001
2119411941	-3.202743e+000	-4.573297e+001
2119711971	-3.169346e+000	-4.603625e+001
2120012001	-3.067172e+000	-4.641424e+001
2120312031	-3.095684e+000	-4.609896e+001
2120612061	-3.112458e+000	-4.633943e+001
2120912091	-3.255954e+000	-4.580661e+001
2121212121	-3.121431e+000	-4.641239e+001
2121512151	-3.124758e+000	-4.610498e+001
2121812181	-3.213316e+000	-4.571018e+001
2122112211	-3.254458e+000	-4.589686e+001
2122412241	-3.152930e+000	-4.612138e+001
2122712271	-3.238268e+000	-4.577874e+001
2123012301	-3.178316e+000	-4.600542e+001
2123312331	-3.255307e+000	-4.587196e+001
2123612361	-3.125766e+000	-4.654290e+001
2123912391	-3.138704e+000	-4.643176e+001
2124212421	-3.257516e+000	-4.586615e+001
2124512451	-3.164340e+000	-4.638711e+001
2124812481	-3.087920e+000	-4.666940e+001
2125112511	-3.192065e+000	-4.589871e+001
2125412541	-3.255472e+000	-4.592526e+001
2125712571	-3.183623e+000	-4.628957e+001
2126012601	-3.164943e+000	-4.622414e+001
2126312631	-3.249349e+000	-4.582184e+001
2126612661	-3.143710e+000	-4.606710e+001
2126912691	-3.108818e+000	-4.666481e+001
2127212721	-3.121453e+000	-4.656639e+001
2127512751	-3.219054e+000	-4.600632e+001
2127812781	-3.116039e+000	-4.671590e+001
2128112811	-3.085993e+000	-4.660088e+001
2128412841	-3.144571e+000	-4.612353e+001
2128712871	-3.223952e+000	-4.589430e+001
2129012901	-3.166211e+000	-4.642434e+001
2129312931	-3.134892e+000	-4.654500e+001
2129612961	-3.171025e+000	-4.627566e+001
2129912991	-3.071284e+000	-4.646933e+001
2130213021	-3.132107e+000	-4.672596e+001
2130513051	-3.110524e+000	-4.679358e+001
2130813081	-3.208843e+000	-4.589492e+001
2131113111	-3.137607e+000	-4.662225e+001
2131413141	-3.094545e+000	-4.696893e+001
2131713171	-3.206014e+000	-4.610407e+001
2132013201	-3.265436e+000	-4.597504e+001
2132313231	-3.132120e+000	-4.661565e+001
2132613261	-3.144113e+000	-4.650027e+001
2132913291	-3.248424e+000	-4.599051e+001
2133213321	-3.076927e+000	-4.664849e+001
2133513351	-3.124371e+000	-4.637511e+001
2133813381	-3.130356e+000	-4.638456e+001
2134113411	-3.251917e+000	-4.596654e+001
2134413441	-3.145637e+000	-4.666612e+001
2134713471	-3.130841e+000	-4.608985e+001
2135013501	-3.243682e+000	-4.603510e+001
2135313531	-3.261784e+000	-4.597125e+001
2135613561	-3.125947e+000	-4.648591e+001
2135913591	-3.188105e+000	-4.625140e+001
2136213621	-3.240027e+000	-4.595290e+001
2136513651	-3.106437e+000	-4.669352e+001
2136813681	-3.093506e+000	-4.661731e+001
2137113711	-3.197117e+000	-4.595895e+001
2137413741	-3.213376e+000	-4.605049e+001
2137713771	-3.110649e+000	-4.680644e+001
2138013801	-3.102304e+000	-4.615272e+001
2138313831	-3.142425e+000	-4.618924e+001
2138613861	-3.155330e+000	-4.603838e+001
2138913891	-3.123785e+000	-4.654230e+001
2139213921	-3.224265e+000	-4.608861e+001
2139513951	-3.125239e+000	-4.631488e+001
2139813981	-3.102663e+000	-4.651472e+001
2140114011	-3.165589e+000	-4.647441e+001
2140414041	-3.102551e+000	-4.698266e+001
2140714071	-3.271661e+000	-4.601306e+001
2141014101	-3.130129e+000	-4.678372e+001
2141314131	-3.091818e+000	-4.669167e+001
2141614161	-3.159175e+000	-4.638378e+001
2141914191	-3.191126e+000	-4.601974e+001
2142214221	-3.170315e+000	-4.645411e+001
2142514251	-3.108843e+000	-4.657332e+001
2142814281	-3.147727e+000	-4.638183e+001
2143114311	-3.141781e+000	-4.633324e+001
2143414341	-3.160532e+000	-4.669811e+001
2143714371	-3.107202e+000	-4.689880e+001
