!Agilent Technologies,E5071C,MY46214220,A.11.31
!Date: Fri Sep 22 10:19:04 2017
!Data & Calibration Information:
!Freq	S11:SOLT1(ON)
!PortZ  Port1:50+j0
!Above PortZ is port z conversion or system Z0 setting when saving the data.
!When reading, reference impedance value at option line is always used.
# Hz S dB R 50
2000000000	-2.651212e-001	-2.829594e+001
2000150008	-2.560840e-001	-2.833651e+001
2000300015	-1.611159e-001	-2.872025e+001
2000450023	-2.767104e-001	-2.833013e+001
2000600030	-1.747364e-001	-2.856373e+001
2000750038	-2.816191e-001	-2.835633e+001
2000900045	-2.668809e-001	-2.838478e+001
2001050053	-1.600329e-001	-2.871689e+001
2001200060	-2.510233e-001	-2.828991e+001
2001350068	-2.066071e-001	-2.844716e+001
2001500075	-1.857469e-001	-2.855078e+001
2001650083	-3.152721e-001	-2.851212e+001
2001800090	-2.972098e-001	-2.835940e+001
2001950098	-2.497870e-001	-2.831450e+001
2002100105	-2.893309e-001	-2.834592e+001
2002250113	-1.741905e-001	-2.849890e+001
2002400120	-2.296974e-001	-2.821988e+001
2002550128	-1.859265e-001	-2.841361e+001
2002700135	-2.649417e-001	-2.830268e+001
2002850143	-2.503892e-001	-2.824928e+001
2003000150	-2.545342e-001	-2.824769e+001
2003150158	-2.508440e-001	-2.822454e+001
2003300165	-2.029498e-001	-2.834126e+001
2003450173	-2.638329e-001	-2.825223e+001
2003600180	-1.652716e-001	-2.873987e+001
2003750188	-2.496915e-001	-2.842154e+001
2003900195	-2.538559e-001	-2.823595e+001
2004050203	-2.922575e-001	-2.839521e+001
2004200210	-2.166097e-001	-2.830253e+001
2004350218	-1.898489e-001	-2.841695e+001
2004500225	-2.895672e-001	-2.846997e+001
2004650233	-1.902570e-001	-2.864638e+001
2004800240	-1.988201e-001	-2.868344e+001
2004950248	-2.979843e-001	-2.842828e+001
2005100255	-3.174439e-001	-2.860567e+001
2005250263	-2.091204e-001	-2.854119e+001
2005400270	-2.004066e-001	-2.838045e+001
2005550278	-2.698935e-001	-2.849428e+001
2005700285	-2.750323e-001	-2.849240e+001
2005850293	-1.601279e-001	-2.884221e+001
2006000300	-2.698471e-001	-2.853063e+001
2006150308	-3.169905e-001	-2.858617e+001
2006300315	-2.763618e-001	-2.842732e+001
2006450323	-1.772298e-001	-2.856947e+001
2006600330	-1.841893e-001	-2.860159e+001
2006750338	-2.680845e-001	-2.837060e+001
2006900345	-1.656385e-001	-2.889148e+001
2007050353	-1.688419e-001	-2.870708e+001
2007200360	-2.445270e-001	-2.854109e+001
2007350368	-3.149575e-001	-2.860619e+001
2007500375	-2.896569e-001	-2.846538e+001
2007650383	-1.993331e-001	-2.870042e+001
2007800390	-2.203867e-001	-2.853241e+001
2007950398	-2.127896e-001	-2.855769e+001
2008100405	-1.651831e-001	-2.893951e+001
2008250413	-1.705039e-001	-2.868403e+001
2008400420	-2.994956e-001	-2.860212e+001
2008550428	-2.586179e-001	-2.851923e+001
2008700435	-1.757316e-001	-2.861274e+001
2008850443	-2.813184e-001	-2.862184e+001
2009000450	-2.733930e-001	-2.862234e+001
2009150458	-1.797777e-001	-2.880649e+001
2009300465	-2.987266e-001	-2.859528e+001
2009450473	-2.680590e-001	-2.848518e+001
2009600480	-3.095352e-001	-2.862022e+001
2009750488	-2.866981e-001	-2.860485e+001
2009900495	-2.115001e-001	-2.863904e+001
2010050503	-3.140240e-001	-2.864972e+001
2010200510	-1.710382e-001	-2.891197e+001
2010350518	-1.971326e-001	-2.876898e+001
2010500525	-3.164778e-001	-2.868454e+001
2010650533	-2.254811e-001	-2.865532e+001
2010800540	-2.259714e-001	-2.867239e+001
2010950548	-2.526858e-001	-2.859454e+001
2011100555	-2.644604e-001	-2.863539e+001
2011250563	-2.397526e-001	-2.860715e+001
2011400570	-1.938723e-001	-2.866709e+001
2011550578	-2.032903e-001	-2.855661e+001
2011700585	-3.134815e-001	-2.872195e+001
2011850593	-2.190389e-001	-2.875698e+001
2012000600	-1.919858e-001	-2.881713e+001
2012150608	-3.205882e-001	-2.877346e+001
2012300615	-2.116145e-001	-2.888542e+001
2012450623	-2.468055e-001	-2.883806e+001
2012600630	-3.048453e-001	-2.871918e+001
2012750638	-1.901216e-001	-2.863397e+001
2012900645	-3.078832e-001	-2.869699e+001
2013050653	-2.925995e-001	-2.867895e+001
2013200660	-1.918846e-001	-2.886089e+001
2013350668	-3.205825e-001	-2.879513e+001
2013500675	-1.934858e-001	-2.893596e+001
2013650683	-1.988754e-001	-2.890717e+001
2013800690	-3.222340e-001	-2.880305e+001
2013950698	-1.997112e-001	-2.881447e+001
2014100705	-2.504104e-001	-2.882331e+001
2014250713	-2.889818e-001	-2.872569e+001
2014400720	-1.661491e-001	-2.902657e+001
2014550728	-1.659133e-001	-2.900608e+001
2014700735	-2.832726e-001	-2.863423e+001
2014850743	-1.685949e-001	-2.893768e+001
2015000750	-2.988189e-001	-2.877208e+001
2015150758	-2.259090e-001	-2.884181e+001
2015300765	-1.688015e-001	-2.907761e+001
2015450773	-3.168533e-001	-2.879377e+001
2015600780	-2.194795e-001	-2.894632e+001
2015750788	-2.032776e-001	-2.902553e+001
2015900795	-3.193318e-001	-2.882665e+001
2016050803	-2.291657e-001	-2.852808e+001
2016200810	-2.798578e-001	-2.874425e+001
2016350818	-3.140651e-001	-2.882894e+001
2016500825	-1.709184e-001	-2.903273e+001
2016650833	-3.196269e-001	-2.883918e+001
2016800840	-2.462455e-001	-2.892737e+001
2016950848	-1.664520e-001	-2.914161e+001
2017100855	-3.185755e-001	-2.885602e+001
2017250863	-2.445147e-001	-2.893215e+001
2017400870	-2.053215e-001	-2.895614e+001
2017550878	-3.182066e-001	-2.884346e+001
2017700885	-1.767767e-001	-2.898244e+001
2017850893	-1.780301e-001	-2.910270e+001
2018000900	-3.196882e-001	-2.887209e+001
2018150908	-1.756601e-001	-2.909919e+001
2018300915	-2.969281e-001	-2.886278e+001
2018450923	-2.564333e-001	-2.891195e+001
2018600930	-1.657985e-001	-2.918814e+001
2018750938	-3.088374e-001	-2.886807e+001
2018900945	-2.196280e-001	-2.899084e+001
2019050953	-2.060577e-001	-2.908669e+001
2019200960	-3.233084e-001	-2.893154e+001
2019350968	-2.074584e-001	-2.889168e+001
2019500975	-2.570710e-001	-2.885412e+001
2019650983	-3.227767e-001	-2.891269e+001
2019800990	-1.953551e-001	-2.895957e+001
2019950998	-3.227475e-001	-2.894575e+001
2020101005	-2.421430e-001	-2.899354e+001
2020251013	-1.735001e-001	-2.914190e+001
2020401020	-3.237075e-001	-2.894619e+001
2020551028	-2.782697e-001	-2.884845e+001
2020701035	-2.093713e-001	-2.894284e+001
2020851043	-3.218446e-001	-2.894316e+001
2021001050	-2.646753e-001	-2.877822e+001
2021151058	-1.733477e-001	-2.905312e+001
2021301065	-3.002219e-001	-2.887172e+001
2021451073	-1.671379e-001	-2.921507e+001
2021601080	-2.890355e-001	-2.890749e+001
2021751088	-2.685733e-001	-2.896454e+001
2021901095	-1.672772e-001	-2.927334e+001
2022051103	-2.890986e-001	-2.896596e+001
2022201110	-2.438079e-001	-2.902540e+001
2022351118	-1.868969e-001	-2.912505e+001
2022501125	-3.159306e-001	-2.894182e+001
2022651133	-1.863313e-001	-2.892782e+001
2022801140	-2.651332e-001	-2.882462e+001
2022951148	-2.962111e-001	-2.896166e+001
2023101155	-1.853463e-001	-2.915751e+001
2023251163	-3.231222e-001	-2.899569e+001
2023401170	-1.884360e-001	-2.913247e+001
2023551178	-2.213420e-001	-2.900746e+001
2023701185	-3.241460e-001	-2.901882e+001
2023851193	-2.129494e-001	-2.904134e+001
2024001200	-2.542493e-001	-2.907260e+001
2024151208	-2.964977e-001	-2.893050e+001
2024301215	-1.665332e-001	-2.910487e+001
2024451223	-2.977969e-001	-2.893509e+001
2024601230	-2.809053e-001	-2.898955e+001
2024751238	-1.837896e-001	-2.921949e+001
2024901245	-3.206849e-001	-2.903615e+001
2025051253	-2.109269e-001	-2.907429e+001
2025201260	-1.804728e-001	-2.925029e+001
2025351268	-3.247837e-001	-2.902077e+001
2025501275	-2.011499e-001	-2.919286e+001
2025651283	-2.266276e-001	-2.914254e+001
2025801290	-2.900445e-001	-2.900493e+001
2025951298	-1.670279e-001	-2.929577e+001
2026101305	-3.053977e-001	-2.904116e+001
2026251313	-2.801248e-001	-2.907303e+001
2026401320	-1.861183e-001	-2.929987e+001
2026551328	-3.254415e-001	-2.905820e+001
2026701335	-1.973522e-001	-2.919807e+001
2026851343	-2.103672e-001	-2.918743e+001
2027001350	-3.264562e-001	-2.908116e+001
2027151358	-2.342750e-001	-2.915862e+001
2027301365	-2.726410e-001	-2.909780e+001
2027451373	-3.078026e-001	-2.902159e+001
2027601380	-1.670827e-001	-2.932950e+001
2027751388	-2.472114e-001	-2.913037e+001
2027901395	-2.950349e-001	-2.905506e+001
2028051403	-1.681424e-001	-2.935106e+001
2028201410	-3.094738e-001	-2.906139e+001
2028351418	-2.463627e-001	-2.907572e+001
2028501425	-1.687118e-001	-2.932434e+001
2028651433	-3.225314e-001	-2.904836e+001
2028801440	-1.972354e-001	-2.922094e+001
2028951448	-2.258370e-001	-2.921486e+001
2029101455	-3.250352e-001	-2.909634e+001
2029251463	-1.736122e-001	-2.928624e+001
2029401470	-2.591820e-001	-2.914781e+001
2029551478	-2.933083e-001	-2.906358e+001
2029701485	-1.702757e-001	-2.935332e+001
2029851493	-3.164567e-001	-2.900921e+001
2030001500	-1.933866e-001	-2.924210e+001
2030151508	-1.923549e-001	-2.926801e+001
2030301515	-3.268783e-001	-2.911955e+001
2030451523	-2.408138e-001	-2.918015e+001
2030601530	-2.328463e-001	-2.920794e+001
2030751538	-3.267676e-001	-2.910972e+001
2030901545	-2.138956e-001	-2.911025e+001
2031051553	-1.924556e-001	-2.921217e+001
2031201560	-3.178644e-001	-2.906106e+001
2031351568	-1.908051e-001	-2.921491e+001
2031501575	-3.269621e-001	-2.912914e+001
2031651583	-2.331232e-001	-2.915612e+001
2031801590	-1.826830e-001	-2.933096e+001
2031951598	-3.269758e-001	-2.911514e+001
2032101605	-2.275191e-001	-2.920113e+001
2032251613	-2.075543e-001	-2.928284e+001
2032401620	-3.233410e-001	-2.911078e+001
2032551628	-2.175319e-001	-2.889291e+001
2032701635	-2.624490e-001	-2.885708e+001
2032851643	-3.112766e-001	-2.907399e+001
2033001650	-2.098849e-001	-2.901208e+001
2033151658	-3.198451e-001	-2.908950e+001
2033301665	-1.770447e-001	-2.915976e+001
2033451673	-2.033717e-001	-2.898094e+001
2033601680	-3.169696e-001	-2.908253e+001
2033751688	-2.421846e-001	-2.900822e+001
2033901695	-2.598374e-001	-2.910023e+001
2034051703	-3.260215e-001	-2.915591e+001
2034201710	-3.227952e-001	-2.912323e+001
2034351718	-1.737309e-001	-2.922558e+001
2034501725	-2.996425e-001	-2.899661e+001
2034651733	-2.949388e-001	-2.895550e+001
2034801740	-3.116165e-001	-2.908550e+001
2034951748	-2.516116e-001	-2.889887e+001
2035101755	-2.736772e-001	-2.896825e+001
2035251763	-2.919217e-001	-2.905984e+001
2035401770	-2.439461e-001	-2.915214e+001
2035551778	-2.050604e-001	-2.916515e+001
2035701785	-2.150252e-001	-2.904313e+001
2035851793	-2.264688e-001	-2.902913e+001
2036001800	-2.643346e-001	-2.888227e+001
2036151808	-2.455261e-001	-2.902990e+001
2036301815	-2.136909e-001	-2.910362e+001
2036451823	-2.613880e-001	-2.913675e+001
2036601830	-1.775781e-001	-2.928056e+001
2036751838	-2.368290e-001	-2.897273e+001
2036901845	-2.529479e-001	-2.908206e+001
2037051853	-2.499746e-001	-2.903789e+001
2037201860	-1.947288e-001	-2.900330e+001
2037351868	-2.031586e-001	-2.895050e+001
2037501875	-3.114593e-001	-2.911393e+001
2037651883	-1.931039e-001	-2.911879e+001
2037801890	-1.654198e-001	-2.928172e+001
2037951898	-2.445465e-001	-2.891836e+001
2038101905	-2.755181e-001	-2.895161e+001
2038251913	-2.028652e-001	-2.897865e+001
2038401920	-2.015833e-001	-2.906068e+001
2038551928	-2.110247e-001	-2.896430e+001
2038701935	-1.894433e-001	-2.913369e+001
2038851943	-1.629629e-001	-2.940131e+001
2039001950	-1.630654e-001	-2.924607e+001
2039151958	-3.084339e-001	-2.914877e+001
2039301965	-2.256382e-001	-2.914971e+001
2039451973	-1.599686e-001	-2.947256e+001
2039601980	-2.667973e-001	-2.906587e+001
2039751988	-2.110796e-001	-2.922953e+001
2039901995	-1.675141e-001	-2.944863e+001
2040052003	-2.805563e-001	-2.904464e+001
2040202010	-1.888866e-001	-2.913026e+001
2040352018	-3.061779e-001	-2.905819e+001
2040502025	-2.953801e-001	-2.905839e+001
2040652033	-1.788641e-001	-2.925939e+001
2040802040	-3.226225e-001	-2.921567e+001
2040952048	-1.943672e-001	-2.932813e+001
2041102055	-1.932558e-001	-2.932658e+001
2041252063	-3.198498e-001	-2.921529e+001
2041402070	-2.267961e-001	-2.927384e+001
2041552078	-2.019641e-001	-2.932378e+001
2041702085	-3.210743e-001	-2.921137e+001
2041852093	-3.011889e-001	-2.904038e+001
2042002100	-1.786172e-001	-2.924254e+001
2042152108	-2.307890e-001	-2.915536e+001
2042302115	-1.889041e-001	-2.918912e+001
2042452123	-2.715548e-001	-2.913917e+001
2042602130	-2.611913e-001	-2.906526e+001
2042752138	-1.601541e-001	-2.943526e+001
2042902145	-2.304123e-001	-2.921703e+001
2043052153	-2.229883e-001	-2.912335e+001
2043202160	-1.690064e-001	-2.944689e+001
2043352168	-2.515391e-001	-2.898122e+001
2043502175	-2.417469e-001	-2.898448e+001
2043652183	-2.181360e-001	-2.904499e+001
2043802190	-2.108766e-001	-2.901222e+001
2043952198	-2.297632e-001	-2.891689e+001
2044102205	-2.673855e-001	-2.893230e+001
2044252213	-1.684184e-001	-2.933872e+001
2044402220	-1.940778e-001	-2.908260e+001
2044552228	-2.372841e-001	-2.891532e+001
2044702235	-1.930123e-001	-2.905028e+001
2044852243	-2.127270e-001	-2.895542e+001
2045002250	-2.128798e-001	-2.896356e+001
2045152258	-2.314552e-001	-2.893250e+001
2045302265	-2.094263e-001	-2.904107e+001
2045452273	-1.594405e-001	-2.943087e+001
2045602280	-1.835349e-001	-2.914826e+001
2045752288	-2.622681e-001	-2.894464e+001
2045902295	-1.709938e-001	-2.928022e+001
2046052303	-1.699062e-001	-2.919999e+001
2046202310	-2.327009e-001	-2.894181e+001
2046352318	-2.017592e-001	-2.914830e+001
2046502325	-1.621757e-001	-2.939589e+001
2046652333	-1.829080e-001	-2.916607e+001
2046802340	-1.924119e-001	-2.919216e+001
2046952348	-2.816907e-001	-2.897363e+001
2047102355	-1.894509e-001	-2.915854e+001
2047252363	-1.705184e-001	-2.933610e+001
2047402370	-2.923415e-001	-2.905729e+001
2047552378	-1.613394e-001	-2.945258e+001
2047702385	-1.821654e-001	-2.919828e+001
2047852393	-2.172815e-001	-2.893064e+001
2048002400	-1.774376e-001	-2.916482e+001
2048152408	-1.970952e-001	-2.906787e+001
2048302415	-1.923336e-001	-2.908316e+001
2048452423	-2.114576e-001	-2.908396e+001
2048602430	-2.008403e-001	-2.911251e+001
2048752438	-1.587321e-001	-2.949228e+001
2048902445	-2.051743e-001	-2.903408e+001
2049052453	-2.692352e-001	-2.900091e+001
2049202460	-1.572641e-001	-2.944934e+001
2049352468	-2.113316e-001	-2.898494e+001
2049502475	-1.884642e-001	-2.905676e+001
2049652483	-1.584092e-001	-2.949439e+001
2049802490	-1.766847e-001	-2.928945e+001
2049952498	-1.883985e-001	-2.917016e+001
2050102505	-1.778183e-001	-2.930072e+001
2050252513	-2.795960e-001	-2.902871e+001
2050402520	-1.612511e-001	-2.947135e+001
2050552528	-2.066666e-001	-2.938265e+001
2050702535	-2.837322e-001	-2.926129e+001
2050852543	-1.560840e-001	-2.957712e+001
2051002550	-2.775640e-001	-2.927434e+001
2051152558	-2.369258e-001	-2.918045e+001
2051302565	-1.791674e-001	-2.924328e+001
2051452573	-2.852231e-001	-2.902092e+001
2051602580	-1.822200e-001	-2.935217e+001
2051752588	-1.890569e-001	-2.927031e+001
2051902595	-2.599982e-001	-2.899154e+001
2052052603	-1.573160e-001	-2.942142e+001
2052202610	-1.924809e-001	-2.936677e+001
2052352618	-3.003020e-001	-2.912809e+001
2052502625	-1.766990e-001	-2.921034e+001
2052652633	-2.172431e-001	-2.898110e+001
2052802640	-1.573403e-001	-2.939338e+001
2052952648	-1.644855e-001	-2.925107e+001
2053102655	-2.004074e-001	-2.917246e+001
2053252663	-2.020869e-001	-2.924199e+001
2053402670	-1.793957e-001	-2.929992e+001
2053552678	-3.087624e-001	-2.923990e+001
2053702685	-1.710849e-001	-2.935054e+001
2053852693	-1.660306e-001	-2.944666e+001
2054002700	-2.886380e-001	-2.920675e+001
2054152708	-1.576797e-001	-2.958011e+001
2054302715	-2.113352e-001	-2.920679e+001
2054452723	-2.622016e-001	-2.899716e+001
2054602730	-2.753002e-001	-2.905041e+001
2054752738	-2.799513e-001	-2.915295e+001
2054902745	-1.593816e-001	-2.954773e+001
2055052753	-2.582891e-001	-2.930835e+001
2055202760	-2.514682e-001	-2.932683e+001
2055352768	-1.587497e-001	-2.962527e+001
2055502775	-2.069030e-001	-2.938127e+001
2055652783	-3.113411e-001	-2.927292e+001
2055802790	-1.858322e-001	-2.927825e+001
2055952798	-2.273799e-001	-2.908230e+001
2056102805	-1.728407e-001	-2.932913e+001
2056252813	-2.733963e-001	-2.903839e+001
2056402820	-1.880862e-001	-2.914936e+001
2056552828	-1.852708e-001	-2.922282e+001
2056702835	-2.774793e-001	-2.915041e+001
2056852843	-2.909901e-001	-2.926018e+001
2057002850	-1.556976e-001	-2.952605e+001
2057152858	-2.331473e-001	-2.925174e+001
2057302865	-2.456434e-001	-2.925572e+001
2057452873	-1.611454e-001	-2.956715e+001
2057602880	-3.156486e-001	-2.932043e+001
2057752888	-1.854773e-001	-2.935697e+001
2057902895	-2.805400e-001	-2.920615e+001
2058052903	-3.187421e-001	-2.934856e+001
2058202910	-1.866978e-001	-2.934176e+001
2058352918	-2.858015e-001	-2.933147e+001
2058502925	-2.325421e-001	-2.936399e+001
2058652933	-1.664715e-001	-2.949498e+001
2058802940	-3.099634e-001	-2.929008e+001
2058952948	-2.991515e-001	-2.931214e+001
2059102955	-2.206294e-001	-2.936025e+001
2059252963	-3.181733e-001	-2.936292e+001
2059402970	-2.290382e-001	-2.914581e+001
2059552978	-3.039440e-001	-2.925311e+001
2059702985	-3.000434e-001	-2.922331e+001
2059852993	-2.316929e-001	-2.925211e+001
2060003000	-2.693561e-001	-2.929814e+001
2060153008	-2.890424e-001	-2.922011e+001
2060303015	-1.696958e-001	-2.928641e+001
2060453023	-2.574692e-001	-2.914646e+001
2060603030	-2.410629e-001	-2.934755e+001
2060753038	-1.739581e-001	-2.954321e+001
2060903045	-3.169883e-001	-2.936613e+001
2061053053	-1.728133e-001	-2.936258e+001
2061203060	-2.825384e-001	-2.928309e+001
2061353068	-2.994830e-001	-2.930425e+001
2061503075	-1.579295e-001	-2.956882e+001
2061653083	-3.043541e-001	-2.935936e+001
2061803090	-2.173526e-001	-2.946548e+001
2061953098	-1.699815e-001	-2.957805e+001
2062103105	-3.134174e-001	-2.937414e+001
2062253113	-2.746407e-001	-2.929121e+001
2062403120	-2.146908e-001	-2.931008e+001
2062553128	-3.121196e-001	-2.935483e+001
2062703135	-2.143602e-001	-2.912435e+001
2062853143	-3.090143e-001	-2.928601e+001
2063003150	-3.119289e-001	-2.930260e+001
2063153158	-1.654841e-001	-2.950284e+001
2063303165	-2.896865e-001	-2.934781e+001
2063453173	-2.473550e-001	-2.936689e+001
2063603180	-1.577419e-001	-2.953948e+001
2063753188	-2.463571e-001	-2.922025e+001
2063903195	-2.182488e-001	-2.932716e+001
2064053203	-1.561192e-001	-2.969439e+001
2064203210	-2.934274e-001	-2.927910e+001
2064353218	-1.820210e-001	-2.926942e+001
2064503225	-2.728903e-001	-2.927904e+001
2064653233	-3.083047e-001	-2.936901e+001
2064803240	-1.630198e-001	-2.953444e+001
2064953248	-2.770518e-001	-2.920572e+001
2065103255	-1.873251e-001	-2.954916e+001
2065253263	-2.063031e-001	-2.954299e+001
2065403270	-3.184028e-001	-2.943416e+001
2065553278	-2.383475e-001	-2.939229e+001
2065703285	-2.273743e-001	-2.944617e+001
2065853293	-2.916153e-001	-2.933873e+001
2066003300	-1.827470e-001	-2.931554e+001
2066153308	-3.096122e-001	-2.934332e+001
2066303315	-2.326067e-001	-2.911953e+001
2066453323	-1.774787e-001	-2.940354e+001
2066603330	-3.180556e-001	-2.943337e+001
2066753338	-2.155864e-001	-2.946320e+001
2066903345	-2.610895e-001	-2.918665e+001
2067053353	-2.672977e-001	-2.926603e+001
2067203360	-1.680356e-001	-2.946876e+001
2067353368	-1.763680e-001	-2.954764e+001
2067503375	-2.839233e-001	-2.940201e+001
2067653383	-1.559383e-001	-2.971820e+001
2067803390	-2.722363e-001	-2.935604e+001
2067953398	-2.892438e-001	-2.938622e+001
2068103405	-1.557261e-001	-2.971094e+001
2068253413	-2.479734e-001	-2.932432e+001
2068403420	-1.790341e-001	-2.955608e+001
2068553428	-2.167256e-001	-2.953168e+001
2068703435	-3.220232e-001	-2.948282e+001
2068853443	-2.098958e-001	-2.937457e+001
2069003450	-2.447038e-001	-2.950376e+001
2069153458	-3.153641e-001	-2.945612e+001
2069303465	-1.729970e-001	-2.937308e+001
2069453473	-1.766653e-001	-2.933291e+001
2069603480	-3.115941e-001	-2.946041e+001
2069753488	-2.080547e-001	-2.936070e+001
2069903495	-3.114449e-001	-2.943647e+001
2070053503	-2.546441e-001	-2.942487e+001
2070203510	-2.425177e-001	-2.937826e+001
2070353518	-3.207778e-001	-2.949324e+001
2070503525	-2.353565e-001	-2.939267e+001
2070653533	-1.561318e-001	-2.975405e+001
2070803540	-2.995020e-001	-2.936367e+001
2070953548	-2.139279e-001	-2.922018e+001
2071103555	-2.955076e-001	-2.929607e+001
2071253563	-2.806375e-001	-2.938211e+001
2071403570	-1.635241e-001	-2.955437e+001
2071553578	-3.062919e-001	-2.940322e+001
2071703585	-1.725662e-001	-2.964665e+001
2071853593	-2.587563e-001	-2.948869e+001
