!Agilent Technologies,E5071C,MY46214220,A.11.31
!Date: Fri Sep 22 10:31:16 2017
!Data & Calibration Information:
!Freq	S11:SOLT1(ON)
!PortZ  Port1:50+j0
!Above PortZ is port z conversion or system Z0 setting when saving the data.
!When reading, reference impedance value at option line is always used.
# Hz S dB R 50
2000000000	-2.755873e-001	-2.862387e+001
2000150008	-2.667777e-001	-2.866261e+001
2000300015	-1.710252e-001	-2.906123e+001
2000450023	-2.896554e-001	-2.866321e+001
2000600030	-1.866176e-001	-2.892804e+001
2000750038	-2.942953e-001	-2.868601e+001
2000900045	-2.766612e-001	-2.873982e+001
2001050053	-1.725798e-001	-2.907478e+001
2001200060	-2.636258e-001	-2.865298e+001
2001350068	-2.191297e-001	-2.880632e+001
2001500075	-1.965772e-001	-2.891438e+001
2001650083	-3.286780e-001	-2.887816e+001
2001800090	-3.105235e-001	-2.873408e+001
2001950098	-2.635254e-001	-2.867642e+001
2002100105	-3.027570e-001	-2.871381e+001
2002250113	-1.876721e-001	-2.887661e+001
2002400120	-2.406932e-001	-2.858721e+001
2002550128	-1.987564e-001	-2.878333e+001
2002700135	-2.768047e-001	-2.866935e+001
2002850143	-2.664369e-001	-2.863593e+001
2003000150	-2.690842e-001	-2.862763e+001
2003150158	-2.647205e-001	-2.861626e+001
2003300165	-2.195414e-001	-2.873686e+001
2003450173	-2.785886e-001	-2.865621e+001
2003600180	-1.808261e-001	-2.914013e+001
2003750188	-2.678620e-001	-2.884752e+001
2003900195	-2.673382e-001	-2.865151e+001
2004050203	-3.097746e-001	-2.881820e+001
2004200210	-2.346459e-001	-2.871265e+001
2004350218	-2.030724e-001	-2.883761e+001
2004500225	-3.033681e-001	-2.890530e+001
2004650233	-2.035610e-001	-2.907408e+001
2004800240	-2.153302e-001	-2.910889e+001
2004950248	-3.165395e-001	-2.887411e+001
2005100255	-3.367490e-001	-2.904767e+001
2005250263	-2.253537e-001	-2.897392e+001
2005400270	-2.165632e-001	-2.882335e+001
2005550278	-2.881642e-001	-2.894965e+001
2005700285	-2.920678e-001	-2.894806e+001
2005850293	-1.773462e-001	-2.930554e+001
2006000300	-2.866016e-001	-2.897706e+001
2006150308	-3.342649e-001	-2.905271e+001
2006300315	-2.932175e-001	-2.888847e+001
2006450323	-1.950498e-001	-2.902858e+001
2006600330	-2.038717e-001	-2.907730e+001
2006750338	-2.889810e-001	-2.882875e+001
2006900345	-1.822090e-001	-2.936996e+001
2007050353	-1.866615e-001	-2.919161e+001
2007200360	-2.638312e-001	-2.901835e+001
2007350368	-3.384762e-001	-2.907396e+001
2007500375	-3.107468e-001	-2.895031e+001
2007650383	-2.192355e-001	-2.920361e+001
2007800390	-2.398207e-001	-2.902471e+001
2007950398	-2.316947e-001	-2.905164e+001
2008100405	-1.850004e-001	-2.944148e+001
2008250413	-1.914255e-001	-2.919440e+001
2008400420	-3.222318e-001	-2.911275e+001
2008550428	-2.788751e-001	-2.902750e+001
2008700435	-1.949532e-001	-2.912228e+001
2008850443	-3.028257e-001	-2.913015e+001
2009000450	-2.969997e-001	-2.914555e+001
2009150458	-2.011988e-001	-2.933057e+001
2009300465	-3.215041e-001	-2.912534e+001
2009450473	-2.920143e-001	-2.900210e+001
2009600480	-3.353954e-001	-2.914281e+001
2009750488	-3.131487e-001	-2.912690e+001
2009900495	-2.332194e-001	-2.916180e+001
2010050503	-3.367226e-001	-2.917422e+001
2010200510	-1.921548e-001	-2.945775e+001
2010350518	-2.180995e-001	-2.931918e+001
2010500525	-3.423417e-001	-2.920457e+001
2010650533	-2.474816e-001	-2.920391e+001
2010800540	-2.495877e-001	-2.920649e+001
2010950548	-2.786011e-001	-2.914546e+001
2011100555	-2.884659e-001	-2.917541e+001
2011250563	-2.642884e-001	-2.915828e+001
2011400570	-2.192774e-001	-2.922510e+001
2011550578	-2.265199e-001	-2.910485e+001
2011700585	-3.389580e-001	-2.926960e+001
2011850593	-2.420174e-001	-2.933243e+001
2012000600	-2.181284e-001	-2.938365e+001
2012150608	-3.478595e-001	-2.934906e+001
2012300615	-2.342444e-001	-2.946490e+001
2012450623	-2.702019e-001	-2.940944e+001
2012600630	-3.313653e-001	-2.928363e+001
2012750638	-2.139125e-001	-2.921983e+001
2012900645	-3.321659e-001	-2.926624e+001
2013050653	-3.196622e-001	-2.925750e+001
2013200660	-2.168751e-001	-2.943817e+001
2013350668	-3.476997e-001	-2.937214e+001
2013500675	-2.180604e-001	-2.953459e+001
2013650683	-2.242888e-001	-2.949682e+001
2013800690	-3.473568e-001	-2.938093e+001
2013950698	-2.266105e-001	-2.940376e+001
2014100705	-2.759278e-001	-2.941016e+001
2014250713	-3.148487e-001	-2.932038e+001
2014400720	-1.916137e-001	-2.964200e+001
2014550728	-1.924046e-001	-2.962341e+001
2014700735	-3.092693e-001	-2.922810e+001
2014850743	-1.922752e-001	-2.955556e+001
2015000750	-3.237151e-001	-2.937529e+001
2015150758	-2.494707e-001	-2.944139e+001
2015300765	-1.905456e-001	-2.970866e+001
2015450773	-3.439636e-001	-2.940320e+001
2015600780	-2.458050e-001	-2.956613e+001
2015750788	-2.240610e-001	-2.963062e+001
2015900795	-3.483319e-001	-2.942608e+001
2016050803	-2.533949e-001	-2.914179e+001
2016200810	-3.031971e-001	-2.934833e+001
2016350818	-3.390686e-001	-2.943392e+001
2016500825	-1.946421e-001	-2.966205e+001
2016650833	-3.458229e-001	-2.946991e+001
2016800840	-2.725205e-001	-2.955685e+001
2016950848	-1.901735e-001	-2.978949e+001
2017100855	-3.450082e-001	-2.947963e+001
2017250863	-2.679269e-001	-2.955675e+001
2017400870	-2.281280e-001	-2.959126e+001
2017550878	-3.456528e-001	-2.947649e+001
2017700885	-1.984965e-001	-2.962372e+001
2017850893	-1.994938e-001	-2.974437e+001
2018000900	-3.469174e-001	-2.950496e+001
2018150908	-2.007161e-001	-2.976609e+001
2018300915	-3.234930e-001	-2.950686e+001
2018450923	-2.819868e-001	-2.955265e+001
2018600930	-1.886925e-001	-2.984158e+001
2018750938	-3.372151e-001	-2.950564e+001
2018900945	-2.458403e-001	-2.964602e+001
2019050953	-2.287040e-001	-2.973812e+001
2019200960	-3.502820e-001	-2.957584e+001
2019350968	-2.309075e-001	-2.954903e+001
2019500975	-2.790836e-001	-2.948119e+001
2019650983	-3.480345e-001	-2.957101e+001
2019800990	-2.186665e-001	-2.960073e+001
2019950998	-3.493348e-001	-2.960008e+001
2020101005	-2.640327e-001	-2.965575e+001
2020251013	-1.960564e-001	-2.981766e+001
2020401020	-3.496855e-001	-2.960004e+001
2020551028	-3.005808e-001	-2.952245e+001
2020701035	-2.319943e-001	-2.960444e+001
2020851043	-3.466675e-001	-2.959729e+001
2021001050	-2.888453e-001	-2.944895e+001
2021151058	-1.963127e-001	-2.973370e+001
2021301065	-3.262747e-001	-2.952243e+001
2021451073	-1.871382e-001	-2.987376e+001
2021601080	-3.119829e-001	-2.956773e+001
2021751088	-2.926119e-001	-2.963437e+001
2021901095	-1.895084e-001	-2.995896e+001
2022051103	-3.124210e-001	-2.963267e+001
2022201110	-2.658029e-001	-2.969522e+001
2022351118	-2.082939e-001	-2.981182e+001
2022501125	-3.406605e-001	-2.960966e+001
2022651133	-2.079744e-001	-2.959911e+001
2022801140	-2.881783e-001	-2.949438e+001
2022951148	-3.216334e-001	-2.963476e+001
2023101155	-2.080157e-001	-2.983170e+001
2023251163	-3.476487e-001	-2.966958e+001
2023401170	-2.098462e-001	-2.980365e+001
2023551178	-2.419571e-001	-2.967982e+001
2023701185	-3.461420e-001	-2.968444e+001
2023851193	-2.337956e-001	-2.971314e+001
2024001200	-2.756998e-001	-2.974095e+001
2024151208	-3.209172e-001	-2.959453e+001
2024301215	-1.858005e-001	-2.979540e+001
2024451223	-3.191165e-001	-2.960273e+001
2024601230	-3.024373e-001	-2.966553e+001
2024751238	-2.023398e-001	-2.990432e+001
2024901245	-3.445027e-001	-2.970666e+001
2025051253	-2.318866e-001	-2.975848e+001
2025201260	-1.992528e-001	-2.993295e+001
2025351268	-3.468781e-001	-2.969628e+001
2025501275	-2.190985e-001	-2.987836e+001
2025651283	-2.453548e-001	-2.982841e+001
2025801290	-3.082547e-001	-2.969203e+001
2025951298	-1.843453e-001	-2.998668e+001
2026101305	-3.259490e-001	-2.970379e+001
2026251313	-2.980091e-001	-2.974927e+001
2026401320	-2.034237e-001	-2.999207e+001
2026551328	-3.440161e-001	-2.973325e+001
2026701335	-2.152974e-001	-2.988221e+001
2026851343	-2.283261e-001	-2.988269e+001
2027001350	-3.445890e-001	-2.974533e+001
2027151358	-2.510878e-001	-2.984065e+001
2027301365	-2.911322e-001	-2.977431e+001
2027451373	-3.259214e-001	-2.969033e+001
2027601380	-1.841822e-001	-3.002230e+001
2027751388	-2.652865e-001	-2.980445e+001
2027901395	-3.130733e-001	-2.972369e+001
2028051403	-1.832930e-001	-3.004389e+001
2028201410	-3.277124e-001	-2.973745e+001
2028351418	-2.601708e-001	-2.974875e+001
2028501425	-1.833640e-001	-3.000916e+001
2028651433	-3.403306e-001	-2.971986e+001
2028801440	-2.118289e-001	-2.990695e+001
2028951448	-2.407906e-001	-2.989728e+001
2029101455	-3.430746e-001	-2.977099e+001
2029251463	-1.870905e-001	-2.995936e+001
2029401470	-2.733924e-001	-2.981835e+001
2029551478	-3.088759e-001	-2.973030e+001
2029701485	-1.819084e-001	-3.004501e+001
2029851493	-3.303467e-001	-2.968018e+001
2030001500	-2.058454e-001	-2.992996e+001
2030151508	-2.050408e-001	-2.995790e+001
2030301515	-3.415482e-001	-2.978591e+001
2030451523	-2.523722e-001	-2.985410e+001
2030601530	-2.453523e-001	-2.987451e+001
2030751538	-3.410735e-001	-2.977415e+001
2030901545	-2.250254e-001	-2.978168e+001
2031051553	-2.044350e-001	-2.988129e+001
2031201560	-3.309181e-001	-2.973427e+001
2031351568	-2.009053e-001	-2.988761e+001
2031501575	-3.401698e-001	-2.979837e+001
2031651583	-2.443265e-001	-2.982137e+001
2031801590	-1.927086e-001	-3.000937e+001
2031951598	-3.395103e-001	-2.979581e+001
2032101605	-2.388382e-001	-2.987428e+001
2032251613	-2.170073e-001	-2.996277e+001
2032401620	-3.352944e-001	-2.976251e+001
2032551628	-2.277438e-001	-2.956783e+001
2032701635	-2.722838e-001	-2.951937e+001
2032851643	-3.226703e-001	-2.972866e+001
2033001650	-2.166163e-001	-2.967583e+001
2033151658	-3.311665e-001	-2.973386e+001
2033301665	-1.863387e-001	-2.982897e+001
2033451673	-2.117822e-001	-2.963820e+001
2033601680	-3.270947e-001	-2.973343e+001
2033751688	-2.497332e-001	-2.966185e+001
2033901695	-2.684302e-001	-2.974861e+001
2034051703	-3.365336e-001	-2.981243e+001
2034201710	-3.327848e-001	-2.978262e+001
2034351718	-1.804780e-001	-2.988576e+001
2034501725	-3.091159e-001	-2.964389e+001
2034651733	-3.040150e-001	-2.960739e+001
2034801740	-3.209929e-001	-2.973599e+001
2034951748	-2.601736e-001	-2.953039e+001
2035101755	-2.823857e-001	-2.959659e+001
2035251763	-2.994294e-001	-2.970047e+001
2035401770	-2.510442e-001	-2.980418e+001
2035551778	-2.104718e-001	-2.981467e+001
2035701785	-2.220258e-001	-2.969022e+001
2035851793	-2.354316e-001	-2.965854e+001
2036001800	-2.717854e-001	-2.951204e+001
2036151808	-2.518094e-001	-2.965888e+001
2036301815	-2.216296e-001	-2.973248e+001
2036451823	-2.670160e-001	-2.976796e+001
2036601830	-1.829599e-001	-2.991556e+001
2036751838	-2.426769e-001	-2.959086e+001
2036901845	-2.595405e-001	-2.971187e+001
2037051853	-2.566992e-001	-2.965851e+001
2037201860	-1.988375e-001	-2.961653e+001
2037351868	-2.073048e-001	-2.956090e+001
2037501875	-3.173105e-001	-2.972680e+001
2037651883	-1.976866e-001	-2.973599e+001
2037801890	-1.704310e-001	-2.988258e+001
2037951898	-2.491413e-001	-2.951879e+001
2038101905	-2.800334e-001	-2.954950e+001
2038251913	-2.065200e-001	-2.958170e+001
2038401920	-2.046424e-001	-2.966893e+001
2038551928	-2.139958e-001	-2.955262e+001
2038701935	-1.933033e-001	-2.973139e+001
2038851943	-1.668000e-001	-2.999697e+001
2039001950	-1.659283e-001	-2.984167e+001
2039151958	-3.140047e-001	-2.973910e+001
2039301965	-2.296663e-001	-2.972110e+001
2039451973	-1.618212e-001	-3.006223e+001
2039601980	-2.688558e-001	-2.964432e+001
2039751988	-2.140923e-001	-2.980481e+001
2039901995	-1.688353e-001	-3.003030e+001
2040052003	-2.852634e-001	-2.961329e+001
2040202010	-1.900734e-001	-2.970251e+001
2040352018	-3.092868e-001	-2.961421e+001
2040502025	-2.987364e-001	-2.961642e+001
2040652033	-1.804942e-001	-2.982256e+001
2040802040	-3.257303e-001	-2.976407e+001
2040952048	-1.936514e-001	-2.987978e+001
2041102055	-1.920960e-001	-2.987526e+001
2041252063	-3.226587e-001	-2.974425e+001
2041402070	-2.263868e-001	-2.982200e+001
2041552078	-2.025301e-001	-2.987784e+001
2041702085	-3.244783e-001	-2.973534e+001
2041852093	-3.015807e-001	-2.957007e+001
2042002100	-1.774579e-001	-2.978356e+001
2042152108	-2.310285e-001	-2.969671e+001
2042302115	-1.868576e-001	-2.972278e+001
2042452123	-2.707418e-001	-2.965905e+001
2042602130	-2.605369e-001	-2.958285e+001
2042752138	-1.572999e-001	-2.994963e+001
2042902145	-2.285665e-001	-2.973065e+001
2043052153	-2.200643e-001	-2.963038e+001
2043202160	-1.658086e-001	-2.996172e+001
2043352168	-2.493835e-001	-2.947797e+001
2043502175	-2.386145e-001	-2.948489e+001
2043652183	-2.155734e-001	-2.953657e+001
2043802190	-2.076188e-001	-2.951098e+001
2043952198	-2.270319e-001	-2.940975e+001
2044102205	-2.636847e-001	-2.942018e+001
2044252213	-1.640508e-001	-2.982732e+001
2044402220	-1.883425e-001	-2.956494e+001
2044552228	-2.316082e-001	-2.938208e+001
2044702235	-1.882946e-001	-2.952741e+001
2044852243	-2.073012e-001	-2.942971e+001
2045002250	-2.056416e-001	-2.943535e+001
2045152258	-2.263375e-001	-2.940322e+001
2045302265	-2.039110e-001	-2.950314e+001
2045452273	-1.523621e-001	-2.990733e+001
2045602280	-1.764554e-001	-2.960228e+001
2045752288	-2.558660e-001	-2.938331e+001
2045902295	-1.632681e-001	-2.973348e+001
2046052303	-1.625559e-001	-2.963622e+001
2046202310	-2.238100e-001	-2.938136e+001
2046352318	-1.928819e-001	-2.959826e+001
2046502325	-1.529966e-001	-2.983980e+001
2046652333	-1.735488e-001	-2.959261e+001
2046802340	-1.835447e-001	-2.962407e+001
2046952348	-2.723287e-001	-2.941450e+001
2047102355	-1.792421e-001	-2.958787e+001
2047252363	-1.607506e-001	-2.976149e+001
2047402370	-2.848034e-001	-2.947988e+001
2047552378	-1.500876e-001	-2.987957e+001
2047702385	-1.715100e-001	-2.961412e+001
2047852393	-2.074520e-001	-2.934344e+001
2048002400	-1.669083e-001	-2.957511e+001
2048152408	-1.855682e-001	-2.946909e+001
2048302415	-1.813761e-001	-2.949049e+001
2048452423	-1.998742e-001	-2.949080e+001
2048602430	-1.890140e-001	-2.950842e+001
2048752438	-1.451095e-001	-2.988632e+001
2048902445	-1.931097e-001	-2.942958e+001
2049052453	-2.582711e-001	-2.939262e+001
2049202460	-1.443665e-001	-2.983852e+001
2049352468	-1.987746e-001	-2.936475e+001
2049502475	-1.744853e-001	-2.943301e+001
2049652483	-1.453747e-001	-2.988090e+001
2049802490	-1.644068e-001	-2.967411e+001
2049952498	-1.761445e-001	-2.953164e+001
2050102505	-1.650909e-001	-2.966786e+001
2050252513	-2.659821e-001	-2.939236e+001
2050402520	-1.452322e-001	-2.984089e+001
2050552528	-1.922069e-001	-2.975235e+001
2050702535	-2.703923e-001	-2.961192e+001
2050852543	-1.416617e-001	-2.993831e+001
2051002550	-2.639097e-001	-2.962639e+001
2051152558	-2.220069e-001	-2.952430e+001
2051302565	-1.643676e-001	-2.958453e+001
2051452573	-2.707820e-001	-2.936608e+001
2051602580	-1.668846e-001	-2.970253e+001
2051752588	-1.735749e-001	-2.959918e+001
2051902595	-2.438422e-001	-2.931737e+001
2052052603	-1.401002e-001	-2.975959e+001
2052202610	-1.765156e-001	-2.969453e+001
2052352618	-2.854675e-001	-2.946034e+001
2052502625	-1.593773e-001	-2.952480e+001
2052652633	-2.008053e-001	-2.929631e+001
2052802640	-1.396289e-001	-2.970056e+001
2052952648	-1.472357e-001	-2.955980e+001
2053102655	-1.826545e-001	-2.947904e+001
2053252663	-1.845012e-001	-2.955254e+001
2053402670	-1.626073e-001	-2.960183e+001
2053552678	-2.927047e-001	-2.953988e+001
2053702685	-1.522355e-001	-2.964232e+001
2053852693	-1.482036e-001	-2.975509e+001
2054002700	-2.683772e-001	-2.948705e+001
2054152708	-1.371892e-001	-2.986523e+001
2054302715	-1.926406e-001	-2.949918e+001
2054452723	-2.437474e-001	-2.927287e+001
2054602730	-2.553083e-001	-2.932784e+001
2054752738	-2.621654e-001	-2.943321e+001
2054902745	-1.383150e-001	-2.982390e+001
2055052753	-2.390144e-001	-2.959080e+001
2055202760	-2.323434e-001	-2.960144e+001
2055352768	-1.359693e-001	-2.989840e+001
2055502775	-1.867560e-001	-2.964183e+001
2055652783	-2.905070e-001	-2.952857e+001
2055802790	-1.636869e-001	-2.953656e+001
2055952798	-2.069217e-001	-2.933031e+001
2056102805	-1.517853e-001	-2.958480e+001
2056252813	-2.527428e-001	-2.929440e+001
2056402820	-1.658237e-001	-2.939813e+001
2056552828	-1.627418e-001	-2.947542e+001
2056702835	-2.573998e-001	-2.939246e+001
2056852843	-2.690061e-001	-2.950269e+001
2057002850	-1.340871e-001	-2.976398e+001
2057152858	-2.106637e-001	-2.948708e+001
2057302865	-2.225655e-001	-2.948872e+001
2057452873	-1.381395e-001	-2.979809e+001
2057602880	-2.944922e-001	-2.955452e+001
2057752888	-1.635810e-001	-2.958022e+001
2057902895	-2.579042e-001	-2.943742e+001
2058052903	-2.962347e-001	-2.957394e+001
2058202910	-1.651613e-001	-2.957460e+001
2058352918	-2.651226e-001	-2.956462e+001
2058502925	-2.090584e-001	-2.957141e+001
2058652933	-1.426310e-001	-2.971502e+001
2058802940	-2.872882e-001	-2.949740e+001
2058952948	-2.771748e-001	-2.951331e+001
2059102955	-1.967059e-001	-2.957283e+001
2059252963	-2.951546e-001	-2.956182e+001
2059402970	-2.058804e-001	-2.934094e+001
2059552978	-2.822855e-001	-2.945103e+001
2059702985	-2.758992e-001	-2.941886e+001
2059852993	-2.081246e-001	-2.944007e+001
2060003000	-2.452708e-001	-2.949534e+001
2060153008	-2.659356e-001	-2.941062e+001
2060303015	-1.447080e-001	-2.947856e+001
2060453023	-2.338322e-001	-2.933377e+001
2060603030	-2.163991e-001	-2.952418e+001
2060753038	-1.498314e-001	-2.972228e+001
2060903045	-2.923740e-001	-2.953749e+001
2061053053	-1.470988e-001	-2.954015e+001
2061203060	-2.598488e-001	-2.946173e+001
2061353068	-2.760544e-001	-2.947391e+001
2061503075	-1.307630e-001	-2.973499e+001
2061653083	-2.809100e-001	-2.952791e+001
2061803090	-1.935082e-001	-2.963522e+001
2061953098	-1.420312e-001	-2.972511e+001
2062103105	-2.893075e-001	-2.954010e+001
2062253113	-2.514331e-001	-2.945311e+001
2062403120	-1.899572e-001	-2.946629e+001
2062553128	-2.877317e-001	-2.950824e+001
2062703135	-1.905839e-001	-2.928375e+001
2062853143	-2.829317e-001	-2.943967e+001
2063003150	-2.864082e-001	-2.945325e+001
2063153158	-1.383570e-001	-2.964906e+001
2063303165	-2.656043e-001	-2.949162e+001
2063453173	-2.217886e-001	-2.951969e+001
2063603180	-1.292858e-001	-2.968948e+001
2063753188	-2.200802e-001	-2.936549e+001
2063903195	-1.926135e-001	-2.948620e+001
2064053203	-1.302412e-001	-2.984333e+001
2064203210	-2.679428e-001	-2.941747e+001
2064353218	-1.573005e-001	-2.939637e+001
2064503225	-2.454294e-001	-2.942425e+001
2064653233	-2.823102e-001	-2.949892e+001
2064803240	-1.373272e-001	-2.966279e+001
2064953248	-2.540328e-001	-2.935120e+001
2065103255	-1.610370e-001	-2.968126e+001
2065253263	-1.794408e-001	-2.968216e+001
2065403270	-2.933036e-001	-2.958940e+001
2065553278	-2.131645e-001	-2.951288e+001
2065703285	-2.011174e-001	-2.957900e+001
2065853293	-2.668606e-001	-2.947621e+001
2066003300	-1.566708e-001	-2.944588e+001
2066153308	-2.831312e-001	-2.946621e+001
2066303315	-2.061466e-001	-2.925689e+001
2066453323	-1.528742e-001	-2.953280e+001
2066603330	-2.918573e-001	-2.957344e+001
2066753338	-1.887202e-001	-2.959247e+001
2066903345	-2.342496e-001	-2.930521e+001
2067053353	-2.414543e-001	-2.939509e+001
2067203360	-1.395534e-001	-2.960072e+001
2067353368	-1.514709e-001	-2.967197e+001
2067503375	-2.564911e-001	-2.952583e+001
2067653383	-1.303193e-001	-2.982873e+001
2067803390	-2.476159e-001	-2.947291e+001
2067953398	-2.640421e-001	-2.950010e+001
2068103405	-1.263916e-001	-2.981604e+001
2068253413	-2.215533e-001	-2.945203e+001
2068403420	-1.527515e-001	-2.966985e+001
2068553428	-1.930029e-001	-2.964883e+001
2068703435	-2.946608e-001	-2.959105e+001
2068853443	-1.842609e-001	-2.947428e+001
2069003450	-2.180431e-001	-2.962524e+001
2069153458	-2.883466e-001	-2.956880e+001
2069303465	-1.474097e-001	-2.946661e+001
2069453473	-1.484472e-001	-2.943730e+001
2069603480	-2.874893e-001	-2.955036e+001
2069753488	-1.842793e-001	-2.946628e+001
2069903495	-2.872635e-001	-2.954749e+001
2070053503	-2.288074e-001	-2.953279e+001
2070203510	-2.147170e-001	-2.947982e+001
2070353518	-2.953445e-001	-2.961691e+001
2070503525	-2.107412e-001	-2.949359e+001
2070653533	-1.305188e-001	-2.985871e+001
2070803540	-2.757312e-001	-2.947679e+001
2070953548	-1.900484e-001	-2.931512e+001
2071103555	-2.703593e-001	-2.940234e+001
2071253563	-2.551330e-001	-2.949908e+001
2071403570	-1.397808e-001	-2.966180e+001
2071553578	-2.812993e-001	-2.951194e+001
2071703585	-1.466726e-001	-2.975071e+001
2071853593	-2.348809e-001	-2.960396e+001
