!Agilent Technologies,E5071C,MY46214220,A.11.31
!Date: Fri Sep 22 10:26:38 2017
!Data & Calibration Information:
!Freq	S11:SOLT1(ON)
!PortZ  Port1:50+j0
!Above PortZ is port z conversion or system Z0 setting when saving the data.
!When reading, reference impedance value at option line is always used.
# Hz S dB R 50
2000000000	-5.702309e-001	-5.527273e+001
2000150008	-5.593208e-001	-5.533168e+001
2000300015	-4.085510e-001	-5.633542e+001
2000450023	-5.953259e-001	-5.528125e+001
2000600030	-4.199354e-001	-5.605291e+001
2000750038	-6.013874e-001	-5.530083e+001
2000900045	-5.731095e-001	-5.543455e+001
2001050053	-4.091691e-001	-5.635149e+001
2001200060	-5.431897e-001	-5.529502e+001
2001350068	-4.712521e-001	-5.571313e+001
2001500075	-4.415063e-001	-5.595926e+001
2001650083	-6.723974e-001	-5.550422e+001
2001800090	-6.275865e-001	-5.528519e+001
2001950098	-5.397936e-001	-5.533710e+001
2002100105	-6.122143e-001	-5.525580e+001
2002250113	-4.143656e-001	-5.587757e+001
2002400120	-4.924499e-001	-5.520815e+001
2002550128	-4.234486e-001	-5.565109e+001
2002700135	-5.607641e-001	-5.524001e+001
2002850143	-5.334291e-001	-5.520837e+001
2003000150	-5.418887e-001	-5.518524e+001
2003150158	-5.310941e-001	-5.518490e+001
2003300165	-4.540246e-001	-5.549217e+001
2003450173	-5.624514e-001	-5.517246e+001
2003600180	-4.122961e-001	-5.633150e+001
2003750188	-5.456364e-001	-5.552315e+001
2003900195	-5.386875e-001	-5.518833e+001
2004050203	-6.203168e-001	-5.533228e+001
2004200210	-4.780540e-001	-5.537411e+001
2004350218	-4.335082e-001	-5.566344e+001
2004500225	-6.170481e-001	-5.548740e+001
2004650233	-4.459456e-001	-5.607976e+001
2004800240	-4.626491e-001	-5.610879e+001
2004950248	-6.249829e-001	-5.538965e+001
2005100255	-6.756513e-001	-5.563000e+001
2005250263	-4.725243e-001	-5.584573e+001
2005400270	-4.468237e-001	-5.556769e+001
2005550278	-5.819912e-001	-5.557943e+001
2005700285	-5.829732e-001	-5.554231e+001
2005850293	-4.084491e-001	-5.650854e+001
2006000300	-5.823435e-001	-5.563604e+001
2006150308	-6.718126e-001	-5.561052e+001
2006300315	-5.872272e-001	-5.542037e+001
2006450323	-4.147318e-001	-5.595052e+001
2006600330	-4.308795e-001	-5.603654e+001
2006750338	-5.709709e-001	-5.533125e+001
2006900345	-4.136927e-001	-5.660411e+001
2007050353	-4.108678e-001	-5.625248e+001
2007200360	-5.344438e-001	-5.569399e+001
2007350368	-6.654058e-001	-5.562992e+001
2007500375	-6.125666e-001	-5.544176e+001
2007650383	-4.626364e-001	-5.614663e+001
2007800390	-4.911909e-001	-5.576700e+001
2007950398	-4.754579e-001	-5.581845e+001
2008100405	-4.163364e-001	-5.664397e+001
2008250413	-4.102918e-001	-5.618826e+001
2008400420	-6.354369e-001	-5.566133e+001
2008550428	-5.569126e-001	-5.562484e+001
2008700435	-4.122201e-001	-5.604876e+001
2008850443	-6.026536e-001	-5.574824e+001
2009000450	-5.884185e-001	-5.576303e+001
2009150458	-4.320911e-001	-5.632661e+001
2009300465	-6.357348e-001	-5.562662e+001
2009450473	-5.687688e-001	-5.552861e+001
2009600480	-6.584292e-001	-5.564967e+001
2009750488	-6.150983e-001	-5.567934e+001
2009900495	-4.756561e-001	-5.594858e+001
2010050503	-6.610625e-001	-5.568572e+001
2010200510	-4.233743e-001	-5.659938e+001
2010350518	-4.570767e-001	-5.626008e+001
2010500525	-6.675729e-001	-5.574874e+001
2010650533	-4.993887e-001	-5.597465e+001
2010800540	-5.038454e-001	-5.595983e+001
2010950548	-5.506503e-001	-5.576746e+001
2011100555	-5.708941e-001	-5.579365e+001
2011250563	-5.234336e-001	-5.583329e+001
2011400570	-4.454418e-001	-5.602894e+001
2011550578	-4.552285e-001	-5.582764e+001
2011700585	-6.648290e-001	-5.577969e+001
2011850593	-4.942192e-001	-5.615957e+001
2012000600	-4.534394e-001	-5.632938e+001
2012150608	-6.817621e-001	-5.588696e+001
2012300615	-4.898194e-001	-5.639287e+001
2012450623	-5.452483e-001	-5.622461e+001
2012600630	-6.457523e-001	-5.581175e+001
2012750638	-4.319434e-001	-5.601657e+001
2012900645	-6.498217e-001	-5.577469e+001
2013050653	-6.222688e-001	-5.578145e+001
2013200660	-4.532509e-001	-5.638613e+001
2013350668	-6.807374e-001	-5.591086e+001
2013500675	-4.579459e-001	-5.657797e+001
2013650683	-4.676679e-001	-5.644498e+001
2013800690	-6.831978e-001	-5.592158e+001
2013950698	-4.615619e-001	-5.629949e+001
2014100705	-5.531546e-001	-5.615531e+001
2014250713	-6.161532e-001	-5.586518e+001
2014400720	-4.147990e-001	-5.678611e+001
2014550728	-4.151257e-001	-5.673422e+001
2014700735	-5.983845e-001	-5.571545e+001
2014850743	-4.108992e-001	-5.661625e+001
2015000750	-6.342513e-001	-5.591399e+001
2015150758	-5.079889e-001	-5.624093e+001
2015300765	-4.162755e-001	-5.686244e+001
2015450773	-6.693866e-001	-5.589052e+001
2015600780	-5.038085e-001	-5.645141e+001
2015750788	-4.769031e-001	-5.663827e+001
2015900795	-6.757548e-001	-5.594270e+001
2016050803	-4.905240e-001	-5.568965e+001
2016200810	-5.963715e-001	-5.588621e+001
2016350818	-6.633624e-001	-5.595529e+001
2016500825	-4.181136e-001	-5.676106e+001
2016650833	-6.778762e-001	-5.596749e+001
2016800840	-5.480416e-001	-5.631692e+001
2016950848	-4.171235e-001	-5.697052e+001
2017100855	-6.747619e-001	-5.600769e+001
2017250863	-5.430408e-001	-5.632525e+001
2017400870	-4.746174e-001	-5.649752e+001
2017550878	-6.722433e-001	-5.598280e+001
2017700885	-4.238480e-001	-5.664504e+001
2017850893	-4.304376e-001	-5.683859e+001
2018000900	-6.761316e-001	-5.600141e+001
2018150908	-4.281022e-001	-5.685398e+001
2018300915	-6.350526e-001	-5.607150e+001
2018450923	-5.622429e-001	-5.625657e+001
2018600930	-4.171174e-001	-5.704104e+001
2018750938	-6.575752e-001	-5.601919e+001
2018900945	-5.036614e-001	-5.651944e+001
2019050953	-4.816501e-001	-5.672885e+001
2019200960	-6.849558e-001	-5.609464e+001
2019350968	-4.716588e-001	-5.636765e+001
2019500975	-5.555250e-001	-5.612545e+001
2019650983	-6.812992e-001	-5.607740e+001
2019800990	-4.528178e-001	-5.650747e+001
2019950998	-6.837635e-001	-5.612684e+001
2020101005	-5.366570e-001	-5.645643e+001
2020251013	-4.238224e-001	-5.692531e+001
2020401020	-6.823258e-001	-5.611407e+001
2020551028	-5.930600e-001	-5.607563e+001
2020701035	-4.760215e-001	-5.645214e+001
2020851043	-6.778331e-001	-5.610221e+001
2021001050	-5.646902e-001	-5.598409e+001
2021151058	-4.168269e-001	-5.675009e+001
2021301065	-6.394837e-001	-5.603047e+001
2021451073	-4.133654e-001	-5.704678e+001
2021601080	-6.163379e-001	-5.613906e+001
2021751088	-5.841135e-001	-5.629187e+001
2021901095	-4.219416e-001	-5.717565e+001
2022051103	-6.193323e-001	-5.623568e+001
2022201110	-5.424637e-001	-5.648398e+001
2022351118	-4.469635e-001	-5.683778e+001
2022501125	-6.657226e-001	-5.609815e+001
2022651133	-4.309442e-001	-5.645848e+001
2022801140	-5.669566e-001	-5.605963e+001
2022951148	-6.314677e-001	-5.620436e+001
2023101155	-4.448688e-001	-5.688457e+001
2023251163	-6.825601e-001	-5.618443e+001
2023401170	-4.497905e-001	-5.680637e+001
2023551178	-4.968189e-001	-5.649061e+001
2023701185	-6.825022e-001	-5.620662e+001
2023851193	-4.839466e-001	-5.657022e+001
2024001200	-5.596376e-001	-5.651508e+001
2024151208	-6.296065e-001	-5.614548e+001
2024301215	-4.045701e-001	-5.685718e+001
2024451223	-6.291830e-001	-5.613785e+001
2024601230	-6.036634e-001	-5.629715e+001
2024751238	-4.417567e-001	-5.698934e+001
2024901245	-6.807830e-001	-5.624504e+001
2025051253	-4.825310e-001	-5.663815e+001
2025201260	-4.359291e-001	-5.706683e+001
2025351268	-6.809150e-001	-5.622724e+001
2025501275	-4.672195e-001	-5.689657e+001
2025651283	-5.121196e-001	-5.672357e+001
2025801290	-6.184929e-001	-5.629426e+001
2025951298	-4.125960e-001	-5.717840e+001
2026101305	-6.465145e-001	-5.629314e+001
2026251313	-6.019285e-001	-5.643836e+001
2026401320	-4.462082e-001	-5.712994e+001
2026551328	-6.830929e-001	-5.628026e+001
2026701335	-4.624092e-001	-5.692743e+001
2026851343	-4.843368e-001	-5.685682e+001
2027001350	-6.846166e-001	-5.630120e+001
2027151358	-5.261865e-001	-5.672920e+001
2027301365	-5.911696e-001	-5.650347e+001
2027451373	-6.483304e-001	-5.625890e+001
2027601380	-4.146848e-001	-5.724927e+001
2027751388	-5.452648e-001	-5.661982e+001
2027901395	-6.283687e-001	-5.636126e+001
2028051403	-4.164420e-001	-5.729097e+001
2028201410	-6.518166e-001	-5.633950e+001
2028351418	-5.385049e-001	-5.653539e+001
2028501425	-4.156389e-001	-5.722271e+001
2028651433	-6.741839e-001	-5.627739e+001
2028801440	-4.619248e-001	-5.693902e+001
2028951448	-5.111521e-001	-5.685855e+001
2029101455	-6.837581e-001	-5.634918e+001
2029251463	-4.216736e-001	-5.713734e+001
2029401470	-5.657780e-001	-5.661741e+001
2029551478	-6.221986e-001	-5.637993e+001
2029701485	-4.191615e-001	-5.728677e+001
2029851493	-6.569361e-001	-5.623453e+001
2030001500	-4.561941e-001	-5.701188e+001
2030151508	-4.533069e-001	-5.706875e+001
2030301515	-6.850392e-001	-5.638775e+001
2030451523	-5.329337e-001	-5.675954e+001
2030601530	-5.199500e-001	-5.682452e+001
2030751538	-6.848044e-001	-5.638586e+001
2030901545	-4.809568e-001	-5.672535e+001
2031051553	-4.508112e-001	-5.696185e+001
2031201560	-6.649013e-001	-5.631980e+001
2031351568	-4.452890e-001	-5.697176e+001
2031501575	-6.867581e-001	-5.641983e+001
2031651583	-5.188306e-001	-5.672962e+001
2031801590	-4.389047e-001	-5.720578e+001
2031951598	-6.844024e-001	-5.640730e+001
2032101605	-5.100087e-001	-5.683798e+001
2032251613	-4.799797e-001	-5.704275e+001
2032401620	-6.764225e-001	-5.639461e+001
2032551628	-4.734988e-001	-5.632499e+001
2032701635	-5.490448e-001	-5.612856e+001
2032851643	-6.520819e-001	-5.637371e+001
2033001650	-4.633520e-001	-5.656006e+001
2033151658	-6.699168e-001	-5.636367e+001
2033301665	-4.154848e-001	-5.693565e+001
2033451673	-4.512680e-001	-5.652252e+001
2033601680	-6.626867e-001	-5.636447e+001
2033751688	-5.226409e-001	-5.645716e+001
2033901695	-5.641864e-001	-5.658477e+001
2034051703	-6.862633e-001	-5.648734e+001
2034201710	-6.786195e-001	-5.644176e+001
2034351718	-4.150340e-001	-5.706952e+001
2034501725	-6.282860e-001	-5.626785e+001
2034651733	-6.191111e-001	-5.621311e+001
2034801740	-6.543149e-001	-5.639861e+001
2034951748	-5.346134e-001	-5.622385e+001
2035101755	-5.783456e-001	-5.627092e+001
2035251763	-6.167513e-001	-5.640910e+001
2035401770	-5.383005e-001	-5.671643e+001
2035551778	-4.660509e-001	-5.686669e+001
2035701785	-4.803973e-001	-5.660687e+001
2035851793	-5.008673e-001	-5.653244e+001
2036001800	-5.578566e-001	-5.616398e+001
2036151808	-5.318173e-001	-5.648545e+001
2036301815	-4.815776e-001	-5.671396e+001
2036451823	-5.698794e-001	-5.663252e+001
2036601830	-4.272788e-001	-5.714613e+001
2036751838	-5.152461e-001	-5.641799e+001
2036901845	-5.506886e-001	-5.656812e+001
2037051853	-5.408020e-001	-5.650318e+001
2037201860	-4.366471e-001	-5.659659e+001
2037351868	-4.520128e-001	-5.646949e+001
2037501875	-6.565804e-001	-5.645122e+001
2037651883	-4.456135e-001	-5.681751e+001
2037801890	-4.078437e-001	-5.716705e+001
2037951898	-5.252587e-001	-5.629700e+001
2038101905	-5.812386e-001	-5.627763e+001
2038251913	-4.555656e-001	-5.653293e+001
2038401920	-4.569398e-001	-5.667784e+001
2038551928	-4.659098e-001	-5.648209e+001
2038701935	-4.400470e-001	-5.685589e+001
2038851943	-4.109506e-001	-5.741474e+001
2039001950	-4.000706e-001	-5.711972e+001
2039151958	-6.563455e-001	-5.652014e+001
2039301965	-5.070765e-001	-5.674493e+001
2039451973	-4.111204e-001	-5.754251e+001
2039601980	-5.726666e-001	-5.650647e+001
2039751988	-4.865930e-001	-5.696358e+001
2039901995	-4.227942e-001	-5.749521e+001
2040052003	-6.009803e-001	-5.640365e+001
2040202010	-4.383635e-001	-5.685508e+001
2040352018	-6.454637e-001	-5.635366e+001
2040502025	-6.281522e-001	-5.638811e+001
2040652033	-4.308242e-001	-5.709890e+001
2040802040	-6.859303e-001	-5.659478e+001
2040952048	-4.611307e-001	-5.718011e+001
2041102055	-4.582675e-001	-5.717257e+001
2041252063	-6.824141e-001	-5.658502e+001
2041402070	-5.176342e-001	-5.698435e+001
2041552078	-4.763766e-001	-5.716648e+001
2041702085	-6.836762e-001	-5.659993e+001
2041852093	-6.366959e-001	-5.635184e+001
2042002100	-4.276023e-001	-5.709007e+001
2042152108	-5.169684e-001	-5.677571e+001
2042302115	-4.423310e-001	-5.695913e+001
2042452123	-5.896671e-001	-5.662609e+001
2042602130	-5.663908e-001	-5.651484e+001
2042752138	-4.090920e-001	-5.747941e+001
2042902145	-5.216171e-001	-5.687668e+001
2043052153	-4.994434e-001	-5.671552e+001
2043202160	-4.255597e-001	-5.747985e+001
2043352168	-5.411189e-001	-5.638279e+001
2043502175	-5.260818e-001	-5.642337e+001
2043652183	-4.867511e-001	-5.659955e+001
2043802190	-4.705569e-001	-5.658577e+001
2043952198	-4.993646e-001	-5.634445e+001
2044102205	-5.680901e-001	-5.626468e+001
2044252213	-4.152156e-001	-5.729219e+001
2044402220	-4.477284e-001	-5.674626e+001
2044552228	-5.125473e-001	-5.630100e+001
2044702235	-4.439083e-001	-5.669365e+001
2044852243	-4.712352e-001	-5.645751e+001
2045002250	-4.711073e-001	-5.648646e+001
2045152258	-5.053930e-001	-5.638155e+001
2045302265	-4.717946e-001	-5.663729e+001
2045452273	-4.082335e-001	-5.749967e+001
2045602280	-4.317735e-001	-5.690733e+001
2045752288	-5.598503e-001	-5.628508e+001
2045902295	-4.178855e-001	-5.718874e+001
2046052303	-4.112043e-001	-5.703449e+001
2046202310	-5.059544e-001	-5.638401e+001
2046352318	-4.635140e-001	-5.686104e+001
2046502325	-4.097564e-001	-5.742277e+001
2046652333	-4.316300e-001	-5.694045e+001
2046802340	-4.527545e-001	-5.696273e+001
2046952348	-5.979566e-001	-5.631199e+001
2047102355	-4.419976e-001	-5.691617e+001
2047252363	-4.229093e-001	-5.729935e+001
2047402370	-6.237454e-001	-5.642522e+001
2047552378	-4.117172e-001	-5.754152e+001
2047702385	-4.323361e-001	-5.701098e+001
2047852393	-4.792060e-001	-5.643245e+001
2048002400	-4.239277e-001	-5.696165e+001
2048152408	-4.505557e-001	-5.673665e+001
2048302415	-4.448668e-001	-5.676812e+001
2048452423	-4.777828e-001	-5.671394e+001
2048602430	-4.612837e-001	-5.680453e+001
2048752438	-4.085792e-001	-5.762194e+001
2048902445	-4.643616e-001	-5.666358e+001
2049052453	-5.780619e-001	-5.640139e+001
2049202460	-4.076651e-001	-5.753946e+001
2049352468	-4.710957e-001	-5.655753e+001
2049502475	-4.354645e-001	-5.674741e+001
2049652483	-4.101554e-001	-5.764543e+001
2049802490	-4.322469e-001	-5.720142e+001
2049952498	-4.443468e-001	-5.693681e+001
2050102505	-4.376294e-001	-5.722648e+001
2050252513	-5.990445e-001	-5.643694e+001
2050402520	-4.137151e-001	-5.759605e+001
2050552528	-4.909248e-001	-5.729562e+001
2050702535	-6.217093e-001	-5.682504e+001
2050852543	-4.145293e-001	-5.780180e+001
2051002550	-6.135453e-001	-5.688150e+001
2051152558	-5.325020e-001	-5.683604e+001
2051302565	-4.319265e-001	-5.713059e+001
2051452573	-6.100830e-001	-5.642360e+001
2051602580	-4.461716e-001	-5.731986e+001
2051752588	-4.527841e-001	-5.714760e+001
2051902595	-5.577362e-001	-5.643009e+001
2052052603	-4.059324e-001	-5.753711e+001
2052202610	-4.655980e-001	-5.732224e+001
2052352618	-6.442672e-001	-5.656772e+001
2052502625	-4.235220e-001	-5.707607e+001
2052652633	-4.842601e-001	-5.652673e+001
2052802640	-4.053325e-001	-5.745945e+001
2052952648	-4.074347e-001	-5.717639e+001
2053102655	-4.650766e-001	-5.694816e+001
2053252663	-4.718054e-001	-5.705058e+001
2053402670	-4.381588e-001	-5.723936e+001
2053552678	-6.666469e-001	-5.674182e+001
2053702685	-4.223925e-001	-5.734655e+001
2053852693	-4.215217e-001	-5.756844e+001
2054002700	-6.256909e-001	-5.673583e+001
2054152708	-4.137323e-001	-5.781350e+001
2054302715	-4.900314e-001	-5.699611e+001
2054452723	-5.645070e-001	-5.644968e+001
2054602730	-5.909558e-001	-5.650718e+001
2054752738	-6.072255e-001	-5.668370e+001
2054902745	-4.142519e-001	-5.777142e+001
2055052753	-5.799687e-001	-5.704724e+001
2055202760	-5.687522e-001	-5.708650e+001
2055352768	-4.201126e-001	-5.791320e+001
2055502775	-4.926139e-001	-5.731169e+001
2055652783	-6.700922e-001	-5.680874e+001
2055802790	-4.460387e-001	-5.719273e+001
2055952798	-5.081161e-001	-5.672215e+001
2056102805	-4.258092e-001	-5.732591e+001
2056252813	-5.867305e-001	-5.651819e+001
2056402820	-4.389253e-001	-5.697459e+001
2056552828	-4.413095e-001	-5.713136e+001
2056702835	-6.038303e-001	-5.669627e+001
2056852843	-6.344436e-001	-5.686139e+001
2057002850	-4.091236e-001	-5.774807e+001
2057152858	-5.302684e-001	-5.703113e+001
2057302865	-5.504834e-001	-5.698385e+001
2057452873	-4.211169e-001	-5.781506e+001
2057602880	-6.842159e-001	-5.689782e+001
2057752888	-4.513110e-001	-5.734737e+001
2057902895	-6.119161e-001	-5.680978e+001
2058052903	-6.908422e-001	-5.693965e+001
2058202910	-4.541992e-001	-5.734479e+001
2058352918	-6.310000e-001	-5.701255e+001
2058502925	-5.361002e-001	-5.722710e+001
2058652933	-4.249371e-001	-5.767876e+001
2058802940	-6.700041e-001	-5.687553e+001
2058952948	-6.518598e-001	-5.693057e+001
2059102955	-5.130221e-001	-5.725734e+001
2059252963	-6.890369e-001	-5.695973e+001
2059402970	-5.162256e-001	-5.684511e+001
2059552978	-6.595023e-001	-5.682467e+001
2059702985	-6.454100e-001	-5.676718e+001
2059852993	-5.276901e-001	-5.702606e+001
2060003000	-6.012636e-001	-5.701746e+001
2060153008	-6.289707e-001	-5.681751e+001
2060303015	-4.147090e-001	-5.730060e+001
2060453023	-5.679139e-001	-5.678438e+001
2060603030	-5.483523e-001	-5.722350e+001
2060753038	-4.442358e-001	-5.774872e+001
2060903045	-6.874600e-001	-5.698082e+001
2061053053	-4.284103e-001	-5.745273e+001
2061203060	-6.205636e-001	-5.696865e+001
2061353068	-6.535885e-001	-5.692927e+001
2061503075	-4.141911e-001	-5.785832e+001
2061653083	-6.670578e-001	-5.700696e+001
2061803090	-5.150918e-001	-5.748657e+001
2061953098	-4.357625e-001	-5.781192e+001
2062103105	-6.848151e-001	-5.702026e+001
2062253113	-6.075948e-001	-5.700239e+001
2062403120	-4.980145e-001	-5.721132e+001
2062553128	-6.773140e-001	-5.699525e+001
2062703135	-4.837921e-001	-5.688068e+001
2062853143	-6.663176e-001	-5.689311e+001
2063003150	-6.727203e-001	-5.692034e+001
2063153158	-4.212707e-001	-5.770530e+001
2063303165	-6.360043e-001	-5.705189e+001
2063453173	-5.637282e-001	-5.723359e+001
2063603180	-4.098201e-001	-5.781295e+001
2063753188	-5.489969e-001	-5.697664e+001
2063903195	-5.057070e-001	-5.724372e+001
2064053203	-4.171507e-001	-5.811071e+001
2064203210	-6.408388e-001	-5.692424e+001
2064353218	-4.375443e-001	-5.724974e+001
2064503225	-5.972301e-001	-5.701482e+001
2064653233	-6.677438e-001	-5.705517e+001
2064803240	-4.195285e-001	-5.778270e+001
2064953248	-6.063312e-001	-5.685953e+001
2065103255	-4.649793e-001	-5.774768e+001
2065253263	-5.012749e-001	-5.768342e+001
2065403270	-6.957657e-001	-5.715842e+001
2065553278	-5.480511e-001	-5.728355e+001
2065703285	-5.316377e-001	-5.744352e+001
2065853293	-6.409338e-001	-5.705765e+001
2066003300	-4.443253e-001	-5.735051e+001
2066153308	-6.709888e-001	-5.701379e+001
2066303315	-5.168451e-001	-5.684587e+001
2066453323	-4.364872e-001	-5.753637e+001
2066603330	-6.927621e-001	-5.716047e+001
2066753338	-5.075382e-001	-5.754083e+001
2066903345	-5.682113e-001	-5.688289e+001
2067053353	-5.895613e-001	-5.699223e+001
2067203360	-4.206773e-001	-5.769888e+001
2067353368	-4.457596e-001	-5.779776e+001
2067503375	-6.275498e-001	-5.721143e+001
2067653383	-4.173285e-001	-5.816450e+001
2067803390	-6.049198e-001	-5.717375e+001
2067953398	-6.353358e-001	-5.713907e+001
2068103405	-4.172307e-001	-5.816316e+001
2068253413	-5.561940e-001	-5.716926e+001
2068403420	-4.498595e-001	-5.779748e+001
2068553428	-5.187889e-001	-5.764927e+001
2068703435	-6.983826e-001	-5.723995e+001
2068853443	-4.929459e-001	-5.737397e+001
2069003450	-5.632335e-001	-5.751779e+001
2069153458	-6.853898e-001	-5.719780e+001
2069303465	-4.256760e-001	-5.746109e+001
2069453473	-4.258984e-001	-5.741394e+001
2069603480	-6.819365e-001	-5.719712e+001
2069753488	-4.859274e-001	-5.736531e+001
2069903495	-6.833942e-001	-5.719640e+001
2070053503	-5.746828e-001	-5.731640e+001
2070203510	-5.470233e-001	-5.727249e+001
2070353518	-6.986313e-001	-5.727876e+001
2070503525	-5.411310e-001	-5.734104e+001
2070653533	-4.203607e-001	-5.823477e+001
2070803540	-6.501057e-001	-5.710513e+001
2070953548	-4.889486e-001	-5.707968e+001
2071103555	-6.402443e-001	-5.698165e+001
2071253563	-6.172227e-001	-5.721038e+001
2071403570	-4.175893e-001	-5.784609e+001
2071553578	-6.675299e-001	-5.714510e+001
2071703585	-4.408397e-001	-5.800499e+001
2071853593	-5.849100e-001	-5.745757e+001
