!Agilent Technologies,E5071C,MY46214220,A.11.31
!Date: Fri Sep 22 12:48:32 2017
!Data & Calibration Information:
!Freq	S11:SOLT1(ON)
!PortZ  Port1:50+j0
!Above PortZ is port z conversion or system Z0 setting when saving the data.
!When reading, reference impedance value at option line is always used.
# Hz S dB R 50
2000000000	-2.114631e-001	-1.110680e+001
2000300030	-1.652379e-001	-1.123287e+001
2000600060	-1.671097e-001	-1.117253e+001
2000900090	-2.034066e-001	-1.111653e+001
2001200120	-1.970105e-001	-1.106865e+001
2001500150	-1.726093e-001	-1.115638e+001
2001800180	-2.131053e-001	-1.110557e+001
2002100210	-2.107296e-001	-1.108454e+001
2002400240	-1.841761e-001	-1.101407e+001
2002700270	-1.975092e-001	-1.107091e+001
2003000300	-1.946117e-001	-1.100841e+001
2003300330	-1.699956e-001	-1.104555e+001
2003600360	-1.526907e-001	-1.118407e+001
2003900390	-1.874237e-001	-1.101605e+001
2004200420	-1.714632e-001	-1.100350e+001
2004500450	-1.956346e-001	-1.109657e+001
2004800480	-1.607993e-001	-1.112794e+001
2005100510	-2.054582e-001	-1.114869e+001
2005400540	-1.628622e-001	-1.099972e+001
2005700570	-1.875764e-001	-1.109576e+001
2006000600	-1.837670e-001	-1.107763e+001
2006300630	-1.844749e-001	-1.102617e+001
2006600660	-1.496345e-001	-1.107376e+001
2006900690	-1.362453e-001	-1.116448e+001
2007200720	-1.681915e-001	-1.105422e+001
2007500750	-1.842443e-001	-1.102297e+001
2007800780	-1.596861e-001	-1.103429e+001
2008100810	-1.303407e-001	-1.115547e+001
2008400840	-1.838453e-001	-1.105457e+001
2008700870	-1.365569e-001	-1.102334e+001
2009000900	-1.715355e-001	-1.105795e+001
2009300930	-1.795636e-001	-1.105483e+001
2009600960	-1.835136e-001	-1.104099e+001
2009900990	-1.425212e-001	-1.101203e+001
2010201020	-1.267849e-001	-1.110812e+001
2010501050	-1.817264e-001	-1.104267e+001
2010801080	-1.436817e-001	-1.100496e+001
2011101110	-1.592447e-001	-1.100494e+001
2011401140	-1.327268e-001	-1.099933e+001
2011701170	-1.759407e-001	-1.105279e+001
2012001200	-1.260930e-001	-1.104452e+001
2012301230	-1.337042e-001	-1.107114e+001
2012601260	-1.686594e-001	-1.101921e+001
2012901290	-1.679594e-001	-1.100877e+001
2013201320	-1.231195e-001	-1.102365e+001
2013501350	-1.217000e-001	-1.105288e+001
2013801380	-1.712818e-001	-1.103935e+001
2014101410	-1.411368e-001	-1.101396e+001
2014401440	-1.061607e-001	-1.106345e+001
2014701470	-1.543939e-001	-1.093931e+001
2015001500	-1.573111e-001	-1.099995e+001
2015301530	-1.031860e-001	-1.105778e+001
2015601560	-1.259339e-001	-1.101777e+001
2015901590	-1.614255e-001	-1.099911e+001
2016201620	-1.478389e-001	-1.094727e+001
2016501650	-1.032216e-001	-1.102876e+001
2016801680	-1.308108e-001	-1.100214e+001
2017101710	-1.599974e-001	-1.099030e+001
2017401740	-1.140968e-001	-1.099408e+001
2017701770	-1.044379e-001	-1.099584e+001
2018001800	-1.546765e-001	-1.098940e+001
2018301830	-1.470253e-001	-1.095622e+001
2018601860	-9.421180e-002	-1.103852e+001
2018901890	-1.150301e-001	-1.097552e+001
2019201920	-1.545757e-001	-1.097634e+001
2019501950	-1.305279e-001	-1.091013e+001
2019801980	-1.044311e-001	-1.092973e+001
2020102010	-1.221628e-001	-1.097187e+001
2020402040	-1.516721e-001	-1.096108e+001
2020702070	-1.083226e-001	-1.092404e+001
2021002100	-1.287428e-001	-1.087311e+001
2021302130	-1.418059e-001	-1.091577e+001
2021602160	-1.373849e-001	-1.092340e+001
2021902190	-8.894220e-002	-1.100334e+001
2022202220	-1.180883e-001	-1.093810e+001
2022502250	-1.453638e-001	-1.093367e+001
2022802280	-1.283061e-001	-1.086362e+001
2023102310	-9.588458e-002	-1.097080e+001
2023402340	-9.565646e-002	-1.095034e+001
2023702370	-1.445986e-001	-1.094785e+001
2024002400	-1.184108e-001	-1.093292e+001
2024302430	-8.611437e-002	-1.090415e+001
2024602460	-1.291567e-001	-1.091806e+001
2024902490	-1.440014e-001	-1.093029e+001
2025202520	-8.940708e-002	-1.096123e+001
2025502550	-9.814504e-002	-1.095369e+001
2025802580	-1.299559e-001	-1.090725e+001
2026102610	-1.391680e-001	-1.092073e+001
2026402640	-8.969677e-002	-1.096182e+001
2026702670	-9.594809e-002	-1.093980e+001
2027002700	-1.434995e-001	-1.092753e+001
2027302730	-1.267758e-001	-1.091851e+001
2027602760	-8.476309e-002	-1.096422e+001
2027902790	-1.317149e-001	-1.090296e+001
2028202820	-1.382714e-001	-1.091777e+001
2028502850	-8.393901e-002	-1.095313e+001
2028802880	-9.469392e-002	-1.093079e+001
2029102910	-1.438583e-001	-1.092489e+001
2029402940	-1.207082e-001	-1.092623e+001
2029702970	-8.505285e-002	-1.096136e+001
2030003000	-9.629130e-002	-1.092062e+001
2030303030	-1.441563e-001	-1.091506e+001
2030603060	-1.108392e-001	-1.092551e+001
2030903090	-1.068328e-001	-1.088904e+001
2031203120	-1.410841e-001	-1.090601e+001
2031503150	-1.481052e-001	-1.092687e+001
2031803180	-9.292684e-002	-1.093875e+001
2032103210	-1.118048e-001	-1.092007e+001
2032403240	-1.475723e-001	-1.091599e+001
2032703270	-1.281046e-001	-1.080466e+001
2033003300	-1.057795e-001	-1.084337e+001
2033303330	-9.592981e-002	-1.089443e+001
2033603360	-1.482826e-001	-1.090983e+001
2033903390	-1.270129e-001	-1.088443e+001
2034203420	-1.472363e-001	-1.091633e+001
2034503450	-1.451588e-001	-1.087148e+001
2034803480	-1.491987e-001	-1.091824e+001
2035103510	-1.364758e-001	-1.084853e+001
2035403540	-1.247723e-001	-1.091139e+001
2035703570	-1.160053e-001	-1.086685e+001
2036003600	-1.375781e-001	-1.083429e+001
2036303630	-1.165182e-001	-1.089394e+001
2036603660	-1.019164e-001	-1.094457e+001
2036903690	-1.328454e-001	-1.089726e+001
2037203720	-1.133230e-001	-1.084984e+001
2037503750	-1.555724e-001	-1.093000e+001
2037803780	-1.021888e-001	-1.094471e+001
2038103810	-1.459292e-001	-1.085500e+001
2038403840	-1.198309e-001	-1.088017e+001
2038703870	-1.153211e-001	-1.090797e+001
2039003900	-1.039108e-001	-1.092774e+001
2039303930	-1.310494e-001	-1.093424e+001
2039603960	-1.462196e-001	-1.091326e+001
2039903990	-1.070779e-001	-1.102030e+001
2040204020	-1.203102e-001	-1.090927e+001
2040504050	-1.591322e-001	-1.092300e+001
2040804080	-1.699360e-001	-1.098060e+001
2041104110	-1.235594e-001	-1.098502e+001
2041404140	-1.385771e-001	-1.098780e+001
2041704170	-1.762753e-001	-1.099149e+001
2042004200	-1.221730e-001	-1.096786e+001
2042304230	-1.273235e-001	-1.094366e+001
2042604260	-1.548398e-001	-1.094343e+001
2042904290	-1.450878e-001	-1.097916e+001
2043204320	-1.213851e-001	-1.105619e+001
2043504350	-1.542775e-001	-1.090978e+001
2043804380	-1.446972e-001	-1.091545e+001
2044104410	-1.659457e-001	-1.090598e+001
2044404440	-1.385260e-001	-1.092652e+001
2044704470	-1.406498e-001	-1.093523e+001
2045004500	-1.501938e-001	-1.090324e+001
2045304530	-1.488462e-001	-1.093532e+001
2045604560	-1.390666e-001	-1.095977e+001
2045904590	-1.367447e-001	-1.101698e+001
2046204620	-1.626834e-001	-1.091719e+001
2046504650	-1.331017e-001	-1.107361e+001
2046804680	-1.486034e-001	-1.099583e+001
2047104710	-1.491889e-001	-1.100501e+001
2047404740	-1.869758e-001	-1.100369e+001
2047704770	-1.481119e-001	-1.101721e+001
2048004800	-1.482923e-001	-1.100910e+001
2048304830	-1.553733e-001	-1.099365e+001
2048604860	-1.586677e-001	-1.101007e+001
2048904890	-1.636690e-001	-1.099363e+001
2049204920	-1.446470e-001	-1.113249e+001
2049504950	-1.595672e-001	-1.100001e+001
2049804980	-1.556299e-001	-1.108411e+001
2050105011	-1.580161e-001	-1.109968e+001
2050405041	-1.508733e-001	-1.116017e+001
2050705071	-1.979649e-001	-1.113002e+001
2051005101	-1.991433e-001	-1.112364e+001
2051305131	-1.630973e-001	-1.109929e+001
2051605161	-1.666089e-001	-1.114413e+001
2051905191	-1.944667e-001	-1.104503e+001
2052205221	-1.720724e-001	-1.116305e+001
2052505251	-1.673299e-001	-1.111131e+001
2052805281	-1.610953e-001	-1.116768e+001
2053105311	-1.806986e-001	-1.111799e+001
2053405341	-1.735360e-001	-1.114606e+001
2053705371	-1.715685e-001	-1.117015e+001
2054005401	-2.158202e-001	-1.117328e+001
2054305431	-1.898106e-001	-1.114093e+001
2054605461	-2.168652e-001	-1.111021e+001
2054905491	-1.707750e-001	-1.127892e+001
2055205521	-2.082063e-001	-1.122538e+001
2055505551	-1.929959e-001	-1.122771e+001
2055805581	-1.856676e-001	-1.119568e+001
2056105611	-1.824558e-001	-1.121212e+001
2056405641	-1.915283e-001	-1.116069e+001
2056705671	-2.267149e-001	-1.118125e+001
2057005701	-1.788648e-001	-1.129802e+001
2057305731	-2.135407e-001	-1.123677e+001
2057605761	-2.409481e-001	-1.126113e+001
2057905791	-2.317163e-001	-1.122859e+001
2058205821	-1.969104e-001	-1.125872e+001
2058505851	-2.145487e-001	-1.128420e+001
2058805881	-2.467302e-001	-1.126643e+001
2059105911	-2.134010e-001	-1.129641e+001
2059405941	-2.180468e-001	-1.121742e+001
2059705971	-2.452102e-001	-1.126250e+001
2060006001	-2.346875e-001	-1.129300e+001
2060306031	-1.986007e-001	-1.127615e+001
2060606061	-2.260627e-001	-1.132361e+001
2060906091	-2.527639e-001	-1.133629e+001
2061206121	-2.452966e-001	-1.131194e+001
2061506151	-1.959344e-001	-1.139473e+001
2061806181	-2.213015e-001	-1.139084e+001
2062106211	-2.607491e-001	-1.136991e+001
2062406241	-2.228988e-001	-1.133049e+001
2062706271	-2.252342e-001	-1.127130e+001
2063006301	-2.582823e-001	-1.136003e+001
2063306331	-2.548719e-001	-1.137471e+001
2063606361	-2.028106e-001	-1.143600e+001
2063906391	-2.275635e-001	-1.138523e+001
2064206421	-2.577860e-001	-1.135394e+001
2064506451	-2.520033e-001	-1.137624e+001
2064806481	-2.072513e-001	-1.144297e+001
2065106511	-2.210731e-001	-1.146985e+001
2065406541	-2.712169e-001	-1.144720e+001
2065706571	-2.363136e-001	-1.143944e+001
2066006601	-2.211774e-001	-1.138648e+001
2066306631	-2.416022e-001	-1.133877e+001
2066606661	-2.711409e-001	-1.147387e+001
2066906691	-2.523892e-001	-1.137682e+001
2067206721	-2.159405e-001	-1.146220e+001
2067506751	-2.581803e-001	-1.146953e+001
2067806781	-2.600280e-001	-1.143296e+001
2068106811	-2.101371e-001	-1.156728e+001
2068406841	-2.216383e-001	-1.150942e+001
2068706871	-2.762821e-001	-1.151241e+001
2069006901	-2.496575e-001	-1.152043e+001
2069306931	-2.223239e-001	-1.146481e+001
2069606961	-2.757128e-001	-1.151867e+001
2069906991	-2.761718e-001	-1.151580e+001
2070207021	-2.499372e-001	-1.147432e+001
2070507051	-2.465466e-001	-1.150194e+001
2070807081	-2.703678e-001	-1.149905e+001
2071107111	-2.730283e-001	-1.146697e+001
2071407141	-2.184156e-001	-1.155075e+001
2071707171	-2.223901e-001	-1.158314e+001
2072007201	-2.662760e-001	-1.151126e+001
2072307231	-2.800171e-001	-1.156812e+001
2072607261	-2.597346e-001	-1.146760e+001
2072907291	-2.221569e-001	-1.154988e+001
2073207321	-2.742320e-001	-1.156328e+001
2073507351	-2.825897e-001	-1.159779e+001
2073807381	-2.598562e-001	-1.155396e+001
2074107411	-2.829385e-001	-1.159101e+001
2074407441	-2.514519e-001	-1.155974e+001
2074707471	-2.602687e-001	-1.148370e+001
2075007501	-2.151387e-001	-1.169850e+001
2075307531	-2.346806e-001	-1.156424e+001
2075607561	-2.426820e-001	-1.159026e+001
2075907591	-2.788004e-001	-1.160365e+001
2076207621	-2.392536e-001	-1.166019e+001
2076507651	-2.444465e-001	-1.159801e+001
2076807681	-2.741590e-001	-1.160136e+001
2077107711	-2.783350e-001	-1.163758e+001
2077407741	-2.204892e-001	-1.161321e+001
2077707771	-2.525348e-001	-1.163893e+001
2078007801	-2.615432e-001	-1.160056e+001
2078307831	-2.130137e-001	-1.171711e+001
2078607861	-2.153372e-001	-1.170096e+001
2078907891	-2.686344e-001	-1.163843e+001
2079207921	-2.478397e-001	-1.166186e+001
2079507951	-2.077363e-001	-1.175141e+001
2079807981	-2.548874e-001	-1.160525e+001
2080108011	-2.731344e-001	-1.165877e+001
2080408041	-2.742147e-001	-1.165264e+001
2080708071	-2.234816e-001	-1.157307e+001
2081008101	-2.583925e-001	-1.165206e+001
2081308131	-2.558085e-001	-1.162703e+001
2081608161	-2.031300e-001	-1.177210e+001
2081908191	-2.250126e-001	-1.160907e+001
2082208221	-2.383109e-001	-1.156599e+001
2082508251	-2.557311e-001	-1.166389e+001
2082808281	-2.024549e-001	-1.178981e+001
2083108311	-2.620687e-001	-1.164619e+001
2083408341	-2.667861e-001	-1.167997e+001
2083708371	-2.590906e-001	-1.166451e+001
2084008401	-2.276261e-001	-1.156307e+001
2084308431	-2.645110e-001	-1.170575e+001
2084608461	-2.377853e-001	-1.159698e+001
2084908491	-1.961859e-001	-1.178123e+001
2085208521	-2.445740e-001	-1.158006e+001
2085508551	-2.103371e-001	-1.164838e+001
2085808581	-2.423878e-001	-1.163912e+001
2086108611	-1.930364e-001	-1.173064e+001
2086408641	-2.538891e-001	-1.169008e+001
2086708671	-2.360456e-001	-1.157805e+001
2087008701	-2.388259e-001	-1.167422e+001
2087308731	-2.136412e-001	-1.163025e+001
2087608761	-2.440851e-001	-1.166738e+001
2087908791	-2.085069e-001	-1.160345e+001
2088208821	-1.881163e-001	-1.170862e+001
2088508851	-2.020405e-001	-1.164018e+001
2088808881	-1.919471e-001	-1.167473e+001
2089108911	-2.364948e-001	-1.165947e+001
2089408941	-2.013990e-001	-1.170433e+001
2089708971	-2.403900e-001	-1.167744e+001
2090009001	-2.203510e-001	-1.160787e+001
2090309031	-2.238627e-001	-1.169024e+001
2090609061	-1.798071e-001	-1.168985e+001
2090909091	-2.208225e-001	-1.159002e+001
2091209121	-1.969682e-001	-1.161802e+001
2091509151	-1.907221e-001	-1.162287e+001
2091809181	-1.759175e-001	-1.165505e+001
2092109211	-2.074808e-001	-1.159608e+001
2092409241	-2.111856e-001	-1.161178e+001
2092709271	-1.995341e-001	-1.168642e+001
2093009301	-1.654536e-001	-1.166256e+001
2093309331	-2.027362e-001	-1.159598e+001
2093609361	-2.026684e-001	-1.163962e+001
2093909391	-1.934932e-001	-1.166468e+001
2094209421	-1.688016e-001	-1.167958e+001
2094509451	-2.062255e-001	-1.158875e+001
2094809481	-1.634500e-001	-1.164150e+001
2095109511	-1.892649e-001	-1.155453e+001
2095409541	-1.698713e-001	-1.162768e+001
2095709571	-2.118342e-001	-1.166754e+001
2096009601	-1.973292e-001	-1.166977e+001
2096309631	-1.819978e-001	-1.162728e+001
2096609661	-1.814156e-001	-1.164392e+001
2096909691	-1.949499e-001	-1.164547e+001
2097209721	-2.007794e-001	-1.159959e+001
2097509751	-1.615607e-001	-1.160339e+001
2097809781	-1.800301e-001	-1.161850e+001
2098109811	-2.035669e-001	-1.163893e+001
2098409841	-1.832010e-001	-1.162659e+001
2098709871	-1.351572e-001	-1.170310e+001
2099009901	-1.944584e-001	-1.163966e+001
2099309931	-1.784306e-001	-1.164647e+001
2099609961	-1.624865e-001	-1.159120e+001
2099909991	-1.355375e-001	-1.167177e+001
2100210021	-1.757200e-001	-1.163089e+001
2100510051	-1.653088e-001	-1.161829e+001
2100810081	-1.277738e-001	-1.166672e+001
2101110111	-1.570757e-001	-1.156095e+001
2101410141	-1.829025e-001	-1.158788e+001
2101710171	-1.548598e-001	-1.162792e+001
2102010201	-1.263037e-001	-1.165289e+001
2102310231	-1.800665e-001	-1.161616e+001
2102610261	-1.604572e-001	-1.161787e+001
2102910291	-1.449247e-001	-1.156491e+001
2103210321	-1.352963e-001	-1.159692e+001
2103510351	-1.472049e-001	-1.156674e+001
2103810381	-1.647386e-001	-1.155992e+001
2104110411	-1.162939e-001	-1.160314e+001
2104410441	-1.253551e-001	-1.149776e+001
2104710471	-1.231241e-001	-1.150655e+001
2105010501	-1.529582e-001	-1.158544e+001
2105310531	-1.065677e-001	-1.161832e+001
2105610561	-1.577935e-001	-1.154302e+001
2105910591	-1.529393e-001	-1.158384e+001
2106210621	-1.149746e-001	-1.152462e+001
2106510651	-1.256154e-001	-1.151954e+001
2106810681	-1.256064e-001	-1.154287e+001
2107110711	-1.667355e-001	-1.154142e+001
2107410741	-1.309204e-001	-1.148854e+001
2107710771	-1.394125e-001	-1.148604e+001
2108010801	-1.008864e-001	-1.161446e+001
2108310831	-1.566186e-001	-1.151955e+001
2108610861	-1.387615e-001	-1.151527e+001
2108910891	-1.522662e-001	-1.148130e+001
2109210921	-1.205413e-001	-1.141383e+001
2109510951	-1.492173e-001	-1.148847e+001
2109810981	-1.369468e-001	-1.140874e+001
2110111011	-1.109851e-001	-1.154895e+001
2110411041	-1.585981e-001	-1.152838e+001
2110711071	-1.305115e-001	-1.139535e+001
2111011101	-1.214101e-001	-1.147548e+001
2111311131	-9.166699e-002	-1.160339e+001
2111611161	-1.481047e-001	-1.149112e+001
2111911191	-1.004697e-001	-1.149458e+001
2112211221	-1.466326e-001	-1.149431e+001
2112511251	-1.202461e-001	-1.141656e+001
2112811281	-1.487686e-001	-1.151133e+001
2113111311	-8.906856e-002	-1.150027e+001
2113411341	-1.152936e-001	-1.149628e+001
2113711371	-1.042683e-001	-1.138734e+001
2114011401	-1.230027e-001	-1.140932e+001
2114311431	-1.087583e-001	-1.149861e+001
2114611461	-8.127393e-002	-1.158088e+001
2114911491	-1.471638e-001	-1.150351e+001
2115211521	-1.325107e-001	-1.144308e+001
2115511551	-1.390605e-001	-1.151113e+001
2115811581	-1.045818e-001	-1.150972e+001
2116111611	-1.407268e-001	-1.148804e+001
2116411641	-1.277548e-001	-1.135330e+001
2116711671	-1.033959e-001	-1.142328e+001
2117011701	-9.127033e-002	-1.139491e+001
2117311731	-9.901618e-002	-1.144743e+001
2117611761	-1.271767e-001	-1.143892e+001
2117911791	-9.120053e-002	-1.149179e+001
2118211821	-9.331949e-002	-1.139559e+001
2118511851	-1.272339e-001	-1.147886e+001
2118811881	-1.330221e-001	-1.145807e+001
2119111911	-1.198372e-001	-1.139330e+001
2119411941	-1.358776e-001	-1.140925e+001
2119711971	-1.170200e-001	-1.142937e+001
2120012001	-8.931284e-002	-1.140532e+001
2120312031	-1.014077e-001	-1.135782e+001
2120612061	-9.751757e-002	-1.143550e+001
2120912091	-1.441172e-001	-1.146287e+001
2121212121	-9.858862e-002	-1.144507e+001
2121512151	-1.086652e-001	-1.137795e+001
2121812181	-1.354478e-001	-1.139507e+001
2122112211	-1.367458e-001	-1.146742e+001
2122412241	-1.150384e-001	-1.141431e+001
2122712271	-1.433908e-001	-1.142027e+001
2123012301	-1.256835e-001	-1.140631e+001
2123312331	-1.374149e-001	-1.145691e+001
2123612361	-9.695130e-002	-1.145102e+001
2123912391	-1.067155e-001	-1.145325e+001
2124212421	-1.452348e-001	-1.145889e+001
2124512451	-1.135556e-001	-1.146404e+001
2124812481	-8.726874e-002	-1.142784e+001
2125112511	-1.328728e-001	-1.140134e+001
2125412541	-1.413096e-001	-1.147005e+001
2125712571	-1.239009e-001	-1.147183e+001
2126012601	-1.225033e-001	-1.143196e+001
2126312631	-1.504734e-001	-1.144458e+001
2126612661	-1.212144e-001	-1.139893e+001
2126912691	-9.746023e-002	-1.145707e+001
2127212721	-1.070354e-001	-1.145976e+001
2127512751	-1.409035e-001	-1.143373e+001
2127812781	-1.018887e-001	-1.149351e+001
2128112811	-9.555015e-002	-1.140732e+001
2128412841	-1.246387e-001	-1.139745e+001
2128712871	-1.444633e-001	-1.143925e+001
2129012901	-1.204257e-001	-1.146600e+001
2129312931	-1.158509e-001	-1.146169e+001
2129612961	-1.294556e-001	-1.145070e+001
2129912991	-1.061617e-001	-1.138161e+001
2130213021	-1.089520e-001	-1.150288e+001
2130513051	-1.083960e-001	-1.150022e+001
2130813081	-1.497487e-001	-1.142116e+001
2131113111	-1.189925e-001	-1.148799e+001
2131413141	-9.706183e-002	-1.151071e+001
2131713171	-1.466617e-001	-1.146224e+001
2132013201	-1.628213e-001	-1.148527e+001
2132313231	-1.194838e-001	-1.147768e+001
2132613261	-1.296861e-001	-1.148088e+001
2132913291	-1.607249e-001	-1.145898e+001
2133213321	-1.111269e-001	-1.144448e+001
2133513351	-1.304601e-001	-1.141358e+001
2133813381	-1.336685e-001	-1.144062e+001
2134113411	-1.712756e-001	-1.147507e+001
2134413441	-1.324980e-001	-1.151674e+001
2134713471	-1.436948e-001	-1.137001e+001
2135013501	-1.687268e-001	-1.149262e+001
2135313531	-1.754785e-001	-1.149400e+001
2135613561	-1.357844e-001	-1.145006e+001
2135913591	-1.594970e-001	-1.148131e+001
2136213621	-1.748693e-001	-1.146142e+001
2136513651	-1.290837e-001	-1.148710e+001
2136813681	-1.289164e-001	-1.145007e+001
2137113711	-1.686862e-001	-1.143725e+001
2137413741	-1.748523e-001	-1.147562e+001
2137713771	-1.315450e-001	-1.154940e+001
2138013801	-1.511459e-001	-1.138902e+001
2138313831	-1.603729e-001	-1.145423e+001
2138613861	-1.672617e-001	-1.144734e+001
2138913891	-1.490377e-001	-1.148290e+001
2139213921	-1.871694e-001	-1.150575e+001
2139513951	-1.603828e-001	-1.145389e+001
2139813981	-1.518670e-001	-1.149911e+001
2140114011	-1.668955e-001	-1.153380e+001
2140414041	-1.443116e-001	-1.160619e+001
2140714071	-2.003861e-001	-1.156040e+001
2141014101	-1.564327e-001	-1.159472e+001
2141314131	-1.487141e-001	-1.153067e+001
2141614161	-1.757063e-001	-1.153613e+001
2141914191	-1.916134e-001	-1.151533e+001
2142214221	-1.787737e-001	-1.156312e+001
2142514251	-1.643207e-001	-1.152705e+001
2142814281	-1.788184e-001	-1.154486e+001
2143114311	-1.819177e-001	-1.152741e+001
2143414341	-1.748466e-001	-1.162315e+001
2143714371	-1.623822e-001	-1.163053e+001
