!Agilent Technologies,E5071C,MY46214220,A.11.31
!Date: Fri Sep 22 10:15:25 2017
!Data & Calibration Information:
!Freq	S11:SOLT1(ON)
!PortZ  Port1:50+j0
!Above PortZ is port z conversion or system Z0 setting when saving the data.
!When reading, reference impedance value at option line is always used.
# Hz S dB R 50
2000000000	-3.258977e-001	-3.545486e+001
2000150008	-3.138691e-001	-3.551106e+001
2000300015	-1.988591e-001	-3.603280e+001
2000450023	-3.394077e-001	-3.547567e+001
2000600030	-2.147045e-001	-3.585032e+001
2000750038	-3.455492e-001	-3.550555e+001
2000900045	-3.248774e-001	-3.557120e+001
2001050053	-2.017916e-001	-3.602387e+001
2001200060	-3.061024e-001	-3.546197e+001
2001350068	-2.522876e-001	-3.567157e+001
2001500075	-2.279649e-001	-3.579883e+001
2001650083	-3.903307e-001	-3.569954e+001
2001800090	-3.621904e-001	-3.551972e+001
2001950098	-3.026338e-001	-3.546845e+001
2002100105	-3.550427e-001	-3.549445e+001
2002250113	-2.144857e-001	-3.574539e+001
2002400120	-2.757124e-001	-3.537677e+001
2002550128	-2.263067e-001	-3.560628e+001
2002700135	-3.219574e-001	-3.545263e+001
2002850143	-3.026599e-001	-3.539857e+001
2003000150	-3.079161e-001	-3.539034e+001
2003150158	-3.015960e-001	-3.538649e+001
2003300165	-2.473767e-001	-3.551355e+001
2003450173	-3.225252e-001	-3.539350e+001
2003600180	-2.027203e-001	-3.604005e+001
2003750188	-3.071711e-001	-3.562624e+001
2003900195	-3.074019e-001	-3.538574e+001
2004050203	-3.588158e-001	-3.555812e+001
2004200210	-2.621515e-001	-3.546866e+001
2004350218	-2.296984e-001	-3.560987e+001
2004500225	-3.499264e-001	-3.566262e+001
2004650233	-2.311724e-001	-3.591247e+001
2004800240	-2.422813e-001	-3.594569e+001
2004950248	-3.604209e-001	-3.560022e+001
2005100255	-3.884317e-001	-3.579162e+001
2005250263	-2.526873e-001	-3.577442e+001
2005400270	-2.430986e-001	-3.557322e+001
2005550278	-3.298204e-001	-3.569394e+001
2005700285	-3.336524e-001	-3.566375e+001
2005850293	-1.981734e-001	-3.615336e+001
2006000300	-3.271872e-001	-3.573918e+001
2006150308	-3.875440e-001	-3.578086e+001
2006300315	-3.344633e-001	-3.560185e+001
2006450323	-2.156768e-001	-3.580414e+001
2006600330	-2.227500e-001	-3.587818e+001
2006750338	-3.259251e-001	-3.550773e+001
2006900345	-2.019395e-001	-3.622561e+001
2007050353	-2.054515e-001	-3.600256e+001
2007200360	-2.971552e-001	-3.574392e+001
2007350368	-3.863840e-001	-3.578985e+001
2007500375	-3.517712e-001	-3.563882e+001
2007650383	-2.413499e-001	-3.596776e+001
2007800390	-2.692777e-001	-3.576843e+001
2007950398	-2.558961e-001	-3.577625e+001
2008100405	-2.027751e-001	-3.626883e+001
2008250413	-2.072233e-001	-3.597085e+001
2008400420	-3.646205e-001	-3.580096e+001
2008550428	-3.127588e-001	-3.570958e+001
2008700435	-2.138606e-001	-3.588817e+001
2008850443	-3.409672e-001	-3.582958e+001
2009000450	-3.340940e-001	-3.584217e+001
2009150458	-2.186414e-001	-3.610082e+001
2009300465	-3.650831e-001	-3.579462e+001
2009450473	-3.237278e-001	-3.566034e+001
2009600480	-3.779931e-001	-3.581914e+001
2009750488	-3.515203e-001	-3.580301e+001
2009900495	-2.573538e-001	-3.587065e+001
2010050503	-3.812765e-001	-3.584839e+001
2010200510	-2.100399e-001	-3.624360e+001
2010350518	-2.386692e-001	-3.605447e+001
2010500525	-3.879492e-001	-3.588177e+001
2010650533	-2.728330e-001	-3.590794e+001
2010800540	-2.738330e-001	-3.590042e+001
2010950548	-3.092501e-001	-3.580608e+001
2011100555	-3.212590e-001	-3.584487e+001
2011250563	-2.907463e-001	-3.582267e+001
2011400570	-2.370957e-001	-3.592262e+001
2011550578	-2.458587e-001	-3.577731e+001
2011700585	-3.833445e-001	-3.591705e+001
2011850593	-2.651719e-001	-3.604344e+001
2012000600	-2.333310e-001	-3.611066e+001
2012150608	-3.938557e-001	-3.600386e+001
2012300615	-2.576244e-001	-3.618291e+001
2012450623	-2.982830e-001	-3.611948e+001
2012600630	-3.718930e-001	-3.592142e+001
2012750638	-2.289654e-001	-3.587787e+001
2012900645	-3.742879e-001	-3.590391e+001
2013050653	-3.554489e-001	-3.588364e+001
2013200660	-2.342405e-001	-3.614567e+001
2013350668	-3.937332e-001	-3.602474e+001
2013500675	-2.350222e-001	-3.626813e+001
2013650683	-2.432079e-001	-3.620837e+001
2013800690	-3.946166e-001	-3.602804e+001
2013950698	-2.422728e-001	-3.610245e+001
2014100705	-3.053597e-001	-3.609632e+001
2014250713	-3.505409e-001	-3.594671e+001
2014400720	-2.004443e-001	-3.638543e+001
2014550728	-2.043170e-001	-3.635223e+001
2014700735	-3.444233e-001	-3.583828e+001
2014850743	-2.032593e-001	-3.626361e+001
2015000750	-3.631986e-001	-3.599246e+001
2015150758	-2.737512e-001	-3.611362e+001
2015300765	-2.029175e-001	-3.644460e+001
2015450773	-3.873010e-001	-3.601126e+001
2015600780	-2.677695e-001	-3.624572e+001
2015750788	-2.464512e-001	-3.635641e+001
2015900795	-3.909331e-001	-3.605455e+001
2016050803	-2.757111e-001	-3.573349e+001
2016200810	-3.392981e-001	-3.596679e+001
2016350818	-3.828433e-001	-3.604480e+001
2016500825	-2.059394e-001	-3.639043e+001
2016650833	-3.905514e-001	-3.606735e+001
2016800840	-3.013189e-001	-3.620766e+001
2016950848	-2.043545e-001	-3.653138e+001
2017100855	-3.895024e-001	-3.609087e+001
2017250863	-2.981120e-001	-3.620309e+001
2017400870	-2.488757e-001	-3.626784e+001
2017550878	-3.883017e-001	-3.607332e+001
2017700885	-2.142485e-001	-3.631554e+001
2017850893	-2.163449e-001	-3.645304e+001
2018000900	-3.920956e-001	-3.610384e+001
2018150908	-2.159378e-001	-3.647123e+001
2018300915	-3.631448e-001	-3.611134e+001
2018450923	-3.120594e-001	-3.617982e+001
2018600930	-2.020382e-001	-3.657956e+001
2018750938	-3.790025e-001	-3.610244e+001
2018900945	-2.693386e-001	-3.630866e+001
2019050953	-2.511109e-001	-3.642151e+001
2019200960	-3.959544e-001	-3.617512e+001
2019350968	-2.519854e-001	-3.619234e+001
2019500975	-3.102363e-001	-3.609626e+001
2019650983	-3.940538e-001	-3.616014e+001
2019800990	-2.369512e-001	-3.625664e+001
2019950998	-3.943803e-001	-3.619855e+001
2020101005	-2.938971e-001	-3.629833e+001
2020251013	-2.093142e-001	-3.651302e+001
2020401020	-3.950463e-001	-3.618653e+001
2020551028	-3.374934e-001	-3.608830e+001
2020701035	-2.519168e-001	-3.624224e+001
2020851043	-3.933643e-001	-3.617346e+001
2021001050	-3.207836e-001	-3.602509e+001
2021151058	-2.104410e-001	-3.640689e+001
2021301065	-3.667648e-001	-3.610791e+001
2021451073	-2.028742e-001	-3.658421e+001
2021601080	-3.507043e-001	-3.615862e+001
2021751088	-3.291117e-001	-3.623710e+001
2021901095	-2.056025e-001	-3.666956e+001
2022051103	-3.520520e-001	-3.622335e+001
2022201110	-2.959064e-001	-3.632299e+001
2022351118	-2.276140e-001	-3.648019e+001
2022501125	-3.856991e-001	-3.617277e+001
2022651133	-2.244568e-001	-3.622263e+001
2022801140	-3.193571e-001	-3.606417e+001
2022951148	-3.615960e-001	-3.621726e+001
2023101155	-2.276579e-001	-3.651675e+001
2023251163	-3.945213e-001	-3.623678e+001
2023401170	-2.301728e-001	-3.646131e+001
2023551178	-2.661058e-001	-3.630548e+001
2023701185	-3.943101e-001	-3.625915e+001
2023851193	-2.562632e-001	-3.633763e+001
2024001200	-3.078131e-001	-3.636071e+001
2024151208	-3.605696e-001	-3.616795e+001
2024301215	-2.009866e-001	-3.645937e+001
2024451223	-3.611806e-001	-3.616666e+001
2024601230	-3.423113e-001	-3.625774e+001
2024751238	-2.209722e-001	-3.658167e+001
2024901245	-3.941170e-001	-3.628466e+001
2025051253	-2.560474e-001	-3.637492e+001
2025201260	-2.185774e-001	-3.662521e+001
2025351268	-3.947892e-001	-3.627558e+001
2025501275	-2.405705e-001	-3.654527e+001
2025651283	-2.732479e-001	-3.646608e+001
2025801290	-3.510389e-001	-3.626841e+001
2025951298	-1.998166e-001	-3.667352e+001
2026101305	-3.703267e-001	-3.628220e+001
2026251313	-3.384512e-001	-3.634446e+001
2026401320	-2.241541e-001	-3.667350e+001
2026551328	-3.950202e-001	-3.629963e+001
2026701335	-2.393399e-001	-3.655160e+001
2026851343	-2.554363e-001	-3.652350e+001
2027001350	-3.967511e-001	-3.633213e+001
2027151358	-2.844019e-001	-3.647702e+001
2027301365	-3.318263e-001	-3.637191e+001
2027451373	-3.736047e-001	-3.626686e+001
2027601380	-2.030359e-001	-3.673019e+001
2027751388	-2.993497e-001	-3.642002e+001
2027901395	-3.583306e-001	-3.631722e+001
2028051403	-2.042001e-001	-3.675105e+001
2028201410	-3.741951e-001	-3.631509e+001
2028351418	-2.956263e-001	-3.636629e+001
2028501425	-2.034526e-001	-3.670878e+001
2028651433	-3.900750e-001	-3.629708e+001
2028801440	-2.374363e-001	-3.656040e+001
2028951448	-2.717295e-001	-3.654748e+001
2029101455	-3.949202e-001	-3.635298e+001
2029251463	-2.082969e-001	-3.666399e+001
2029401470	-3.138689e-001	-3.643229e+001
2029551478	-3.533367e-001	-3.632274e+001
2029701485	-2.055049e-001	-3.675689e+001
2029851493	-3.801767e-001	-3.625786e+001
2030001500	-2.340296e-001	-3.660135e+001
2030151508	-2.309266e-001	-3.663432e+001
2030301515	-3.959802e-001	-3.637447e+001
2030451523	-2.883508e-001	-3.649973e+001
2030601530	-2.793183e-001	-3.653509e+001
2030751538	-3.958089e-001	-3.637655e+001
2030901545	-2.552693e-001	-3.643564e+001
2031051553	-2.314499e-001	-3.656549e+001
2031201560	-3.834227e-001	-3.631488e+001
2031351568	-2.273833e-001	-3.657046e+001
2031501575	-3.977910e-001	-3.639125e+001
2031651583	-2.805811e-001	-3.647525e+001
2031801590	-2.193827e-001	-3.672102e+001
2031951598	-3.949057e-001	-3.639762e+001
2032101605	-2.740072e-001	-3.653138e+001
2032251613	-2.485174e-001	-3.664306e+001
2032401620	-3.905161e-001	-3.638085e+001
2032551628	-2.582820e-001	-3.616797e+001
2032701635	-3.116862e-001	-3.610075e+001
2032851643	-3.744570e-001	-3.634935e+001
2033001650	-2.477943e-001	-3.631206e+001
2033151658	-3.874109e-001	-3.633955e+001
2033301665	-2.099285e-001	-3.652074e+001
2033451673	-2.409825e-001	-3.627852e+001
2033601680	-3.827150e-001	-3.634420e+001
2033751688	-2.869758e-001	-3.629266e+001
2033901695	-3.124647e-001	-3.640086e+001
2034051703	-3.950385e-001	-3.643802e+001
2034201710	-3.899501e-001	-3.640727e+001
2034351718	-2.076461e-001	-3.659931e+001
2034501725	-3.612508e-001	-3.625146e+001
2034651733	-3.554568e-001	-3.621762e+001
2034801740	-3.773183e-001	-3.636020e+001
2034951748	-3.005255e-001	-3.614625e+001
2035101755	-3.294235e-001	-3.622075e+001
2035251763	-3.513781e-001	-3.633798e+001
2035401770	-2.948766e-001	-3.647382e+001
2035551778	-2.442720e-001	-3.651828e+001
2035701785	-2.592107e-001	-3.635002e+001
2035851793	-2.738677e-001	-3.632373e+001
2036001800	-3.178595e-001	-3.613490e+001
2036151808	-2.924630e-001	-3.631429e+001
2036301815	-2.572307e-001	-3.642566e+001
2036451823	-3.167212e-001	-3.643746e+001
2036601830	-2.149981e-001	-3.666185e+001
2036751838	-2.857661e-001	-3.624824e+001
2036901845	-3.056655e-001	-3.638732e+001
2037051853	-3.008154e-001	-3.633014e+001
2037201860	-2.307541e-001	-3.631390e+001
2037351868	-2.423158e-001	-3.623549e+001
2037501875	-3.774434e-001	-3.638195e+001
2037651883	-2.317045e-001	-3.646708e+001
2037801890	-2.001296e-001	-3.666726e+001
2037951898	-2.928708e-001	-3.618006e+001
2038101905	-3.316195e-001	-3.620530e+001
2038251913	-2.424971e-001	-3.627717e+001
2038401920	-2.416704e-001	-3.637468e+001
2038551928	-2.506665e-001	-3.624708e+001
2038701935	-2.283705e-001	-3.646870e+001
2038851943	-1.985154e-001	-3.681635e+001
2039001950	-1.960322e-001	-3.661738e+001
2039151958	-3.743817e-001	-3.643138e+001
2039301965	-2.735551e-001	-3.646214e+001
2039451973	-1.960515e-001	-3.689555e+001
2039601980	-3.228568e-001	-3.635435e+001
2039751988	-2.550530e-001	-3.657134e+001
2039901995	-2.052098e-001	-3.686735e+001
2040052003	-3.401037e-001	-3.631035e+001
2040202010	-2.263125e-001	-3.646852e+001
2040352018	-3.719407e-001	-3.631472e+001
2040502025	-3.580748e-001	-3.632055e+001
2040652033	-2.169872e-001	-3.662821e+001
2040802040	-3.938894e-001	-3.649960e+001
2040952048	-2.346364e-001	-3.670158e+001
2041102055	-2.329348e-001	-3.669003e+001
2041252063	-3.899432e-001	-3.648472e+001
2041402070	-2.751240e-001	-3.662134e+001
2041552078	-2.462829e-001	-3.669369e+001
2041702085	-3.922174e-001	-3.648595e+001
2041852093	-3.641004e-001	-3.629424e+001
2042002100	-2.142923e-001	-3.661072e+001
2042152108	-2.784122e-001	-3.646830e+001
2042302115	-2.274568e-001	-3.652832e+001
2042452123	-3.301997e-001	-3.642879e+001
2042602130	-3.154324e-001	-3.633593e+001
2042752138	-1.948059e-001	-3.683959e+001
2042902145	-2.784758e-001	-3.653271e+001
2043052153	-2.690714e-001	-3.642699e+001
2043202160	-2.053509e-001	-3.685502e+001
2043352168	-3.021149e-001	-3.623927e+001
2043502175	-2.895874e-001	-3.624396e+001
2043652183	-2.618615e-001	-3.633702e+001
2043802190	-2.519472e-001	-3.630238e+001
2043952198	-2.737679e-001	-3.617205e+001
2044102205	-3.222974e-001	-3.616743e+001
2044252213	-2.027209e-001	-3.672046e+001
2044402220	-2.319761e-001	-3.639258e+001
2044552228	-2.827071e-001	-3.615498e+001
2044702235	-2.306987e-001	-3.635377e+001
2044852243	-2.527103e-001	-3.622217e+001
2045002250	-2.521631e-001	-3.623823e+001
2045152258	-2.772993e-001	-3.618947e+001
2045302265	-2.503860e-001	-3.634412e+001
2045452273	-1.925923e-001	-3.684814e+001
2045602280	-2.194153e-001	-3.648166e+001
2045752288	-3.144714e-001	-3.617952e+001
2045902295	-2.048741e-001	-3.664187e+001
2046052303	-2.021768e-001	-3.654107e+001
2046202310	-2.772750e-001	-3.619798e+001
2046352318	-2.413016e-001	-3.647605e+001
2046502325	-1.945236e-001	-3.679467e+001
2046652333	-2.182184e-001	-3.650599e+001
2046802340	-2.303359e-001	-3.652514e+001
2046952348	-3.377209e-001	-3.621421e+001
2047102355	-2.253019e-001	-3.647706e+001
2047252363	-2.059995e-001	-3.672576e+001
2047402370	-3.533372e-001	-3.631393e+001
2047552378	-1.949674e-001	-3.687016e+001
2047702385	-2.173873e-001	-3.655328e+001
2047852393	-2.584815e-001	-3.620444e+001
2048002400	-2.104752e-001	-3.650635e+001
2048152408	-2.336493e-001	-3.637529e+001
2048302415	-2.307936e-001	-3.640334e+001
2048452423	-2.521422e-001	-3.638913e+001
2048602430	-2.386646e-001	-3.644151e+001
2048752438	-1.916037e-001	-3.691670e+001
2048902445	-2.439993e-001	-3.634276e+001
2049052453	-3.232352e-001	-3.627316e+001
2049202460	-1.910130e-001	-3.687542e+001
2049352468	-2.506107e-001	-3.626483e+001
2049502475	-2.227037e-001	-3.636611e+001
2049652483	-1.910663e-001	-3.692913e+001
2049802490	-2.127164e-001	-3.666695e+001
2049952498	-2.246879e-001	-3.650474e+001
2050102505	-2.140580e-001	-3.668105e+001
2050252513	-3.367408e-001	-3.629530e+001
2050402520	-1.933709e-001	-3.690351e+001
2050552528	-2.498122e-001	-3.677496e+001
2050702535	-3.442580e-001	-3.656902e+001
2050852543	-1.898075e-001	-3.703352e+001
2051002550	-3.379446e-001	-3.660480e+001
2051152558	-2.867530e-001	-3.649551e+001
2051302565	-2.146971e-001	-3.660283e+001
2051452573	-3.431988e-001	-3.629284e+001
2051602580	-2.212686e-001	-3.675249e+001
2051752588	-2.281218e-001	-3.664034e+001
2051902595	-3.105442e-001	-3.625286e+001
2052052603	-1.896876e-001	-3.684897e+001
2052202610	-2.329701e-001	-3.676584e+001
2052352618	-3.625071e-001	-3.641423e+001
2052502625	-2.109655e-001	-3.656003e+001
2052652633	-2.594508e-001	-3.625497e+001
2052802640	-1.901453e-001	-3.679587e+001
2052952648	-1.980487e-001	-3.662666e+001
2053102655	-2.398325e-001	-3.651071e+001
2053252663	-2.421817e-001	-3.658928e+001
2053402670	-2.168479e-001	-3.667137e+001
2053552678	-3.756835e-001	-3.654241e+001
2053702685	-2.040624e-001	-3.673625e+001
2053852693	-2.009332e-001	-3.687881e+001
2054002700	-3.496007e-001	-3.650536e+001
2054152708	-1.901707e-001	-3.703095e+001
2054302715	-2.540181e-001	-3.655435e+001
2054452723	-3.144516e-001	-3.626169e+001
2054602730	-3.306796e-001	-3.631075e+001
2054752738	-3.385363e-001	-3.644683e+001
2054902745	-1.902530e-001	-3.699454e+001
2055052753	-3.130418e-001	-3.665538e+001
2055202760	-3.056384e-001	-3.667634e+001
2055352768	-1.917865e-001	-3.709012e+001
2055502775	-2.507677e-001	-3.676373e+001
2055652783	-3.758201e-001	-3.657767e+001
2055802790	-2.225061e-001	-3.665184e+001
2055952798	-2.730307e-001	-3.637347e+001
2056102805	-2.084021e-001	-3.672210e+001
2056252813	-3.282611e-001	-3.631373e+001
2056402820	-2.218326e-001	-3.648852e+001
2056552828	-2.210549e-001	-3.659300e+001
2056702835	-3.354400e-001	-3.644188e+001
2056852843	-3.547622e-001	-3.657019e+001
2057002850	-1.870676e-001	-3.697041e+001
2057152858	-2.815306e-001	-3.660493e+001
2057302865	-2.964017e-001	-3.659069e+001
2057452873	-1.968449e-001	-3.701598e+001
2057602880	-3.846952e-001	-3.664084e+001
2057752888	-2.234365e-001	-3.674483e+001
2057902895	-3.394551e-001	-3.652224e+001
2058052903	-3.869824e-001	-3.666339e+001
2058202910	-2.258325e-001	-3.674400e+001
2058352918	-3.478003e-001	-3.668199e+001
2058502925	-2.816680e-001	-3.672544e+001
2058652933	-2.004136e-001	-3.693675e+001
2058802940	-3.760427e-001	-3.660626e+001
2058952948	-3.634008e-001	-3.663535e+001
2059102955	-2.650536e-001	-3.674601e+001
2059252963	-3.884245e-001	-3.667608e+001
2059402970	-2.758391e-001	-3.645638e+001
2059552978	-3.701002e-001	-3.654695e+001
2059702985	-3.627274e-001	-3.651847e+001
2059852993	-2.791240e-001	-3.657916e+001
2060003000	-3.279647e-001	-3.664445e+001
2060153008	-3.491418e-001	-3.653556e+001
2060303015	-2.024740e-001	-3.667348e+001
2060453023	-3.098922e-001	-3.645629e+001
2060603030	-2.914362e-001	-3.672785e+001
2060753038	-2.126478e-001	-3.698181e+001
2060903045	-3.865619e-001	-3.667943e+001
2061053053	-2.065608e-001	-3.676778e+001
2061203060	-3.413837e-001	-3.660719e+001
2061353068	-3.642612e-001	-3.661854e+001
2061503075	-1.909408e-001	-3.702971e+001
2061653083	-3.727265e-001	-3.668976e+001
2061803090	-2.640964e-001	-3.687275e+001
2061953098	-2.055703e-001	-3.701740e+001
2062103105	-3.832838e-001	-3.670630e+001
2062253113	-3.328096e-001	-3.662351e+001
2062403120	-2.580520e-001	-3.668262e+001
2062553128	-3.807450e-001	-3.667582e+001
2062703135	-2.547787e-001	-3.646211e+001
2062853143	-3.739595e-001	-3.660195e+001
2063003150	-3.767951e-001	-3.662903e+001
2063153158	-1.983251e-001	-3.695668e+001
2063303165	-3.527153e-001	-3.668257e+001
2063453173	-2.999122e-001	-3.673743e+001
2063603180	-1.896291e-001	-3.699730e+001
2063753188	-2.966023e-001	-3.656387e+001
2063903195	-2.640202e-001	-3.669932e+001
2064053203	-1.890760e-001	-3.718758e+001
2064203210	-3.552749e-001	-3.660247e+001
2064353218	-2.179577e-001	-3.664123e+001
2064503225	-3.282200e-001	-3.662095e+001
2064653233	-3.726003e-001	-3.669854e+001
2064803240	-1.970357e-001	-3.697166e+001
2064953248	-3.357655e-001	-3.653171e+001
2065103255	-2.264616e-001	-3.698668e+001
2065253263	-2.503719e-001	-3.699000e+001
2065403270	-3.887592e-001	-3.678770e+001
2065553278	-2.896542e-001	-3.676275e+001
2065703285	-2.761670e-001	-3.683926e+001
2065853293	-3.547332e-001	-3.668033e+001
2066003300	-2.221955e-001	-3.671277e+001
2066153308	-3.765286e-001	-3.668079e+001
2066303315	-2.751124e-001	-3.643686e+001
2066453323	-2.134996e-001	-3.683624e+001
2066603330	-3.859357e-001	-3.679529e+001
2066753338	-2.604625e-001	-3.689614e+001
2066903345	-3.115716e-001	-3.650557e+001
2067053353	-3.247075e-001	-3.661570e+001
2067203360	-2.000612e-001	-3.691756e+001
2067353368	-2.148239e-001	-3.700205e+001
2067503375	-3.439569e-001	-3.677470e+001
2067653383	-1.883679e-001	-3.723278e+001
2067803390	-3.297867e-001	-3.672179e+001
2067953398	-3.522912e-001	-3.672762e+001
2068103405	-1.884958e-001	-3.722370e+001
2068253413	-2.986119e-001	-3.668891e+001
2068403420	-2.148487e-001	-3.701022e+001
2068553428	-2.657211e-001	-3.697443e+001
2068703435	-3.903944e-001	-3.684465e+001
2068853443	-2.519690e-001	-3.676827e+001
2069003450	-2.970230e-001	-3.692144e+001
2069153458	-3.824874e-001	-3.682471e+001
2069303465	-2.072366e-001	-3.676419e+001
2069453473	-2.085015e-001	-3.674549e+001
2069603480	-3.809731e-001	-3.680110e+001
2069753488	-2.507111e-001	-3.674928e+001
2069903495	-3.791570e-001	-3.681533e+001
2070053503	-3.090740e-001	-3.680259e+001
2070203510	-2.904481e-001	-3.675049e+001
2070353518	-3.895283e-001	-3.687603e+001
2070503525	-2.856850e-001	-3.678687e+001
2070653533	-1.920152e-001	-3.727149e+001
2070803540	-3.632870e-001	-3.671961e+001
2070953548	-2.572379e-001	-3.656696e+001
2071103555	-3.580944e-001	-3.663766e+001
2071253563	-3.395410e-001	-3.676767e+001
2071403570	-1.956695e-001	-3.701507e+001
2071553578	-3.725395e-001	-3.675357e+001
2071703585	-2.105493e-001	-3.711689e+001
2071853593	-3.140134e-001	-3.689667e+001
