!Agilent Technologies,E5071C,MY46214220,A.11.31
!Date: Fri Sep 22 10:34:45 2017
!Data & Calibration Information:
!Freq	S11:SOLT1(ON)
!PortZ  Port1:50+j0
!Above PortZ is port z conversion or system Z0 setting when saving the data.
!When reading, reference impedance value at option line is always used.
# Hz S dB R 50
2000000000	-1.831537e-001	-2.173803e+001
2000150008	-1.757200e-001	-2.176390e+001
2000300015	-9.893748e-002	-2.202503e+001
2000450023	-1.932191e-001	-2.176911e+001
2000600030	-1.107943e-001	-2.193986e+001
2000750038	-1.955592e-001	-2.180537e+001
2000900045	-1.829816e-001	-2.184366e+001
2001050053	-1.011321e-001	-2.206026e+001
2001200060	-1.720619e-001	-2.175720e+001
2001350068	-1.385570e-001	-2.185670e+001
2001500075	-1.221972e-001	-2.194784e+001
2001650083	-2.249070e-001	-2.196002e+001
2001800090	-2.078591e-001	-2.184515e+001
2001950098	-1.746430e-001	-2.180686e+001
2002100105	-2.072435e-001	-2.180704e+001
2002250113	-1.145799e-001	-2.191330e+001
2002400120	-1.567424e-001	-2.171785e+001
2002550128	-1.264221e-001	-2.185349e+001
2002700135	-1.876515e-001	-2.179872e+001
2002850143	-1.775881e-001	-2.177357e+001
2003000150	-1.799134e-001	-2.174989e+001
2003150158	-1.765328e-001	-2.174447e+001
2003300165	-1.414893e-001	-2.182797e+001
2003450173	-1.879248e-001	-2.178938e+001
2003600180	-1.075943e-001	-2.212739e+001
2003750188	-1.763641e-001	-2.192039e+001
2003900195	-1.825366e-001	-2.178367e+001
2004050203	-2.115743e-001	-2.191162e+001
2004200210	-1.534374e-001	-2.181124e+001
2004350218	-1.307273e-001	-2.190614e+001
2004500225	-2.060199e-001	-2.198662e+001
2004650233	-1.292611e-001	-2.207248e+001
2004800240	-1.367911e-001	-2.211333e+001
2004950248	-2.145804e-001	-2.197432e+001
2005100255	-2.288487e-001	-2.211560e+001
2005250263	-1.464370e-001	-2.203244e+001
2005400270	-1.406582e-001	-2.190108e+001
2005550278	-1.936945e-001	-2.200969e+001
2005700285	-1.976447e-001	-2.202325e+001
2005850293	-1.060244e-001	-2.225177e+001
2006000300	-1.927614e-001	-2.205599e+001
2006150308	-2.321718e-001	-2.211872e+001
2006300315	-2.001020e-001	-2.198242e+001
2006450323	-1.243959e-001	-2.206281e+001
2006600330	-1.287695e-001	-2.211241e+001
2006750338	-1.967014e-001	-2.194594e+001
2006900345	-1.110452e-001	-2.233228e+001
2007050353	-1.164064e-001	-2.218231e+001
2007200360	-1.768233e-001	-2.207778e+001
2007350368	-2.314988e-001	-2.215570e+001
2007500375	-2.126577e-001	-2.204354e+001
2007650383	-1.393538e-001	-2.219890e+001
2007800390	-1.573871e-001	-2.209292e+001
2007950398	-1.530122e-001	-2.209685e+001
2008100405	-1.139093e-001	-2.236821e+001
2008250413	-1.215188e-001	-2.218948e+001
2008400420	-2.193877e-001	-2.217114e+001
2008550428	-1.898068e-001	-2.210852e+001
2008700435	-1.244812e-001	-2.214880e+001
2008850443	-2.052595e-001	-2.220034e+001
2009000450	-2.004042e-001	-2.218886e+001
2009150458	-1.283605e-001	-2.231649e+001
2009300465	-2.210890e-001	-2.219460e+001
2009450473	-1.997029e-001	-2.209822e+001
2009600480	-2.296438e-001	-2.221828e+001
2009750488	-2.139572e-001	-2.221133e+001
2009900495	-1.525148e-001	-2.220279e+001
2010050503	-2.340203e-001	-2.225210e+001
2010200510	-1.196337e-001	-2.241285e+001
2010350518	-1.417290e-001	-2.230339e+001
2010500525	-2.331601e-001	-2.228208e+001
2010650533	-1.641986e-001	-2.225428e+001
2010800540	-1.655635e-001	-2.224758e+001
2010950548	-1.873822e-001	-2.220437e+001
2011100555	-1.965175e-001	-2.224156e+001
2011250563	-1.775396e-001	-2.222514e+001
2011400570	-1.435101e-001	-2.226798e+001
2011550578	-1.494468e-001	-2.217062e+001
2011700585	-2.347512e-001	-2.233170e+001
2011850593	-1.594845e-001	-2.233889e+001
2012000600	-1.375433e-001	-2.238412e+001
2012150608	-2.414048e-001	-2.239702e+001
2012300615	-1.536557e-001	-2.245881e+001
2012450623	-1.809207e-001	-2.241659e+001
2012600630	-2.259448e-001	-2.233931e+001
2012750638	-1.393926e-001	-2.225003e+001
2012900645	-2.299188e-001	-2.234069e+001
2013050653	-2.182449e-001	-2.232172e+001
2013200660	-1.401649e-001	-2.242820e+001
2013350668	-2.405906e-001	-2.242647e+001
2013500675	-1.394934e-001	-2.250534e+001
2013650683	-1.464826e-001	-2.249173e+001
2013800690	-2.428817e-001	-2.244531e+001
2013950698	-1.469379e-001	-2.240796e+001
2014100705	-1.853469e-001	-2.244874e+001
2014250713	-2.166621e-001	-2.239961e+001
2014400720	-1.198719e-001	-2.259293e+001
2014550728	-1.211013e-001	-2.258036e+001
2014700735	-2.157927e-001	-2.233099e+001
2014850743	-1.205699e-001	-2.252337e+001
2015000750	-2.236253e-001	-2.243614e+001
2015150758	-1.645322e-001	-2.245967e+001
2015300765	-1.191404e-001	-2.263814e+001
2015450773	-2.398870e-001	-2.246698e+001
2015600780	-1.626617e-001	-2.256233e+001
2015750788	-1.478393e-001	-2.261248e+001
2015900795	-2.412536e-001	-2.250443e+001
2016050803	-1.718318e-001	-2.223653e+001
2016200810	-2.105927e-001	-2.241093e+001
2016350818	-2.367648e-001	-2.250772e+001
2016500825	-1.245805e-001	-2.263439e+001
2016650833	-2.422900e-001	-2.252623e+001
2016800840	-1.824020e-001	-2.257364e+001
2016950848	-1.190581e-001	-2.273615e+001
2017100855	-2.413760e-001	-2.254213e+001
2017250863	-1.811997e-001	-2.257829e+001
2017400870	-1.503103e-001	-2.259934e+001
2017550878	-2.403453e-001	-2.253593e+001
2017700885	-1.297446e-001	-2.260088e+001
2017850893	-1.281569e-001	-2.270383e+001
2018000900	-2.423821e-001	-2.256770e+001
2018150908	-1.296311e-001	-2.270991e+001
2018300915	-2.241205e-001	-2.255551e+001
2018450923	-1.927796e-001	-2.255518e+001
2018600930	-1.178606e-001	-2.276431e+001
2018750938	-2.347850e-001	-2.257265e+001
2018900945	-1.654863e-001	-2.264960e+001
2019050953	-1.515547e-001	-2.272542e+001
2019200960	-2.470324e-001	-2.262577e+001
2019350968	-1.543398e-001	-2.257055e+001
2019500975	-1.934019e-001	-2.254033e+001
2019650983	-2.463552e-001	-2.261524e+001
2019800990	-1.444507e-001	-2.261591e+001
2019950998	-2.452206e-001	-2.265611e+001
2020101005	-1.806677e-001	-2.266694e+001
2020251013	-1.243922e-001	-2.276148e+001
2020401020	-2.460096e-001	-2.265672e+001
2020551028	-2.099215e-001	-2.256489e+001
2020701035	-1.556219e-001	-2.261789e+001
2020851043	-2.439332e-001	-2.264852e+001
2021001050	-2.017877e-001	-2.253347e+001
2021151058	-1.253264e-001	-2.271032e+001
2021301065	-2.263932e-001	-2.258892e+001
2021451073	-1.204877e-001	-2.282916e+001
2021601080	-2.183716e-001	-2.262864e+001
2021751088	-2.036437e-001	-2.266295e+001
2021901095	-1.198904e-001	-2.286710e+001
2022051103	-2.171764e-001	-2.267764e+001
2022201110	-1.827698e-001	-2.271594e+001
2022351118	-1.339585e-001	-2.277319e+001
2022501125	-2.397925e-001	-2.266110e+001
2022651133	-1.370037e-001	-2.262193e+001
2022801140	-1.985321e-001	-2.256067e+001
2022951148	-2.219590e-001	-2.267854e+001
2023101155	-1.364011e-001	-2.281122e+001
2023251163	-2.430953e-001	-2.270295e+001
2023401170	-1.377422e-001	-2.278819e+001
2023551178	-1.616996e-001	-2.269795e+001
2023701185	-2.423604e-001	-2.274357e+001
2023851193	-1.553199e-001	-2.271171e+001
2024001200	-1.880830e-001	-2.275374e+001
2024151208	-2.240028e-001	-2.266607e+001
2024301215	-1.183923e-001	-2.276504e+001
2024451223	-2.222977e-001	-2.266720e+001
2024601230	-2.094669e-001	-2.271023e+001
2024751238	-1.331237e-001	-2.286063e+001
2024901245	-2.436219e-001	-2.276159e+001
2025051253	-1.549851e-001	-2.274838e+001
2025201260	-1.278943e-001	-2.289170e+001
2025351268	-2.437722e-001	-2.275097e+001
2025501275	-1.445034e-001	-2.284987e+001
2025651283	-1.657036e-001	-2.281827e+001
2025801290	-2.150108e-001	-2.272309e+001
2025951298	-1.150937e-001	-2.290731e+001
2026101305	-2.270553e-001	-2.275599e+001
2026251313	-2.074840e-001	-2.277670e+001
2026401320	-1.322784e-001	-2.291786e+001
2026551328	-2.418620e-001	-2.278384e+001
2026701335	-1.428256e-001	-2.285255e+001
2026851343	-1.515805e-001	-2.284342e+001
2027001350	-2.431778e-001	-2.279233e+001
2027151358	-1.709969e-001	-2.283543e+001
2027301365	-2.006232e-001	-2.279312e+001
2027451373	-2.286681e-001	-2.274568e+001
2027601380	-1.164070e-001	-2.294030e+001
2027751388	-1.788480e-001	-2.281353e+001
2027901395	-2.177205e-001	-2.276272e+001
2028051403	-1.169082e-001	-2.296505e+001
2028201410	-2.279012e-001	-2.277998e+001
2028351418	-1.772727e-001	-2.276889e+001
2028501425	-1.166757e-001	-2.293891e+001
2028651433	-2.377420e-001	-2.276998e+001
2028801440	-1.391772e-001	-2.285857e+001
2028951448	-1.611024e-001	-2.287471e+001
2029101455	-2.408097e-001	-2.281408e+001
2029251463	-1.190227e-001	-2.291088e+001
2029401470	-1.878835e-001	-2.282444e+001
2029551478	-2.146907e-001	-2.276772e+001
2029701485	-1.157974e-001	-2.296939e+001
2029851493	-2.326448e-001	-2.273931e+001
2030001500	-1.339382e-001	-2.288564e+001
2030151508	-1.290114e-001	-2.290595e+001
2030301515	-2.397771e-001	-2.282593e+001
2030451523	-1.690488e-001	-2.284378e+001
2030601530	-1.640904e-001	-2.286605e+001
2030751538	-2.394895e-001	-2.281947e+001
2030901545	-1.488953e-001	-2.279374e+001
2031051553	-1.328763e-001	-2.286586e+001
2031201560	-2.319582e-001	-2.277768e+001
2031351568	-1.292495e-001	-2.285976e+001
2031501575	-2.388329e-001	-2.282901e+001
2031651583	-1.628596e-001	-2.283338e+001
2031801590	-1.228010e-001	-2.294861e+001
2031951598	-2.365941e-001	-2.283870e+001
2032101605	-1.599965e-001	-2.285845e+001
2032251613	-1.412643e-001	-2.290946e+001
2032401620	-2.339167e-001	-2.281596e+001
2032551628	-1.513766e-001	-2.262123e+001
2032701635	-1.877190e-001	-2.259519e+001
2032851643	-2.248022e-001	-2.277943e+001
2033001650	-1.441679e-001	-2.270603e+001
2033151658	-2.303890e-001	-2.279655e+001
2033301665	-1.181764e-001	-2.280464e+001
2033451673	-1.397110e-001	-2.268165e+001
2033601680	-2.282948e-001	-2.278913e+001
2033751688	-1.668579e-001	-2.271118e+001
2033901695	-1.821130e-001	-2.279166e+001
2034051703	-2.339737e-001	-2.285048e+001
2034201710	-2.311683e-001	-2.282498e+001
2034351718	-1.134838e-001	-2.285163e+001
2034501725	-2.145252e-001	-2.271422e+001
2034651733	-2.099499e-001	-2.268134e+001
2034801740	-2.231335e-001	-2.278681e+001
2034951748	-1.770992e-001	-2.260005e+001
2035101755	-1.946808e-001	-2.267077e+001
2035251763	-2.066703e-001	-2.275106e+001
2035401770	-1.691798e-001	-2.280660e+001
2035551778	-1.361684e-001	-2.281212e+001
2035701785	-1.474713e-001	-2.270680e+001
2035851793	-1.555613e-001	-2.269759e+001
2036001800	-1.860872e-001	-2.259317e+001
2036151808	-1.696373e-001	-2.270283e+001
2036301815	-1.435222e-001	-2.275667e+001
2036451823	-1.808467e-001	-2.278022e+001
2036601830	-1.132443e-001	-2.287138e+001
2036751838	-1.625382e-001	-2.265201e+001
2036901845	-1.756591e-001	-2.273515e+001
2037051853	-1.724631e-001	-2.270471e+001
2037201860	-1.288924e-001	-2.265941e+001
2037351868	-1.356938e-001	-2.261431e+001
2037501875	-2.200315e-001	-2.277281e+001
2037651883	-1.248901e-001	-2.273925e+001
2037801890	-1.042184e-001	-2.285101e+001
2037951898	-1.654976e-001	-2.259622e+001
2038101905	-1.912694e-001	-2.263019e+001
2038251913	-1.344694e-001	-2.262209e+001
2038401920	-1.329348e-001	-2.268589e+001
2038551928	-1.398972e-001	-2.260401e+001
2038701935	-1.229179e-001	-2.274516e+001
2038851943	-9.946873e-002	-2.292647e+001
2039001950	-1.003123e-001	-2.281673e+001
2039151958	-2.144128e-001	-2.278252e+001
2039301965	-1.503383e-001	-2.274801e+001
2039451973	-9.648293e-002	-2.297710e+001
2039601980	-1.824878e-001	-2.270168e+001
2039751988	-1.369256e-001	-2.279826e+001
2039901995	-1.008796e-001	-2.296192e+001
2040052003	-1.937592e-001	-2.266897e+001
2040202010	-1.188805e-001	-2.270525e+001
2040352018	-2.139140e-001	-2.268646e+001
2040502025	-2.034150e-001	-2.267757e+001
2040652033	-1.097371e-001	-2.279248e+001
2040802040	-2.234516e-001	-2.280606e+001
2040952048	-1.211263e-001	-2.284829e+001
2041102055	-1.184227e-001	-2.283899e+001
2041252063	-2.204657e-001	-2.278316e+001
2041402070	-1.465836e-001	-2.281327e+001
2041552078	-1.274216e-001	-2.283794e+001
2041702085	-2.207796e-001	-2.278309e+001
2041852093	-2.063023e-001	-2.265137e+001
2042002100	-1.090018e-001	-2.275946e+001
2042152108	-1.480053e-001	-2.271186e+001
2042302115	-1.161786e-001	-2.271055e+001
2042452123	-1.809848e-001	-2.270035e+001
2042602130	-1.746444e-001	-2.263919e+001
2042752138	-9.105817e-002	-2.287822e+001
2042902145	-1.479044e-001	-2.273018e+001
2043052153	-1.408932e-001	-2.265669e+001
2043202160	-9.657995e-002	-2.288539e+001
2043352168	-1.658588e-001	-2.254778e+001
2043502175	-1.570084e-001	-2.254274e+001
2043652183	-1.386885e-001	-2.257943e+001
2043802190	-1.336542e-001	-2.255896e+001
2043952198	-1.474446e-001	-2.248270e+001
2044102205	-1.773389e-001	-2.250385e+001
2044252213	-9.565118e-002	-2.278141e+001
2044402220	-1.176659e-001	-2.258839e+001
2044552228	-1.520535e-001	-2.246395e+001
2044702235	-1.174782e-001	-2.255121e+001
2044852243	-1.316009e-001	-2.248365e+001
2045002250	-1.311269e-001	-2.248818e+001
2045152258	-1.466668e-001	-2.246091e+001
2045302265	-1.273947e-001	-2.254058e+001
2045452273	-8.580172e-002	-2.282831e+001
2045602280	-1.065369e-001	-2.260039e+001
2045752288	-1.694625e-001	-2.247134e+001
2045902295	-9.488240e-002	-2.269962e+001
2046052303	-9.533546e-002	-2.263670e+001
2046202310	-1.456212e-001	-2.246509e+001
2046352318	-1.190152e-001	-2.260800e+001
2046502325	-8.681447e-002	-2.278120e+001
2046652333	-1.045206e-001	-2.260091e+001
2046802340	-1.114999e-001	-2.261736e+001
2046952348	-1.808599e-001	-2.248636e+001
2047102355	-1.080778e-001	-2.258608e+001
2047252363	-9.189016e-002	-2.270898e+001
2047402370	-1.891675e-001	-2.253590e+001
2047552378	-8.322914e-002	-2.279701e+001
2047702385	-1.012955e-001	-2.260086e+001
2047852393	-1.306493e-001	-2.240877e+001
2048002400	-9.757376e-002	-2.257142e+001
2048152408	-1.132530e-001	-2.249803e+001
2048302415	-1.088268e-001	-2.251656e+001
2048452423	-1.246844e-001	-2.251002e+001
2048602430	-1.141522e-001	-2.252814e+001
2048752438	-7.920127e-002	-2.280173e+001
2048902445	-1.182281e-001	-2.246758e+001
2049052453	-1.685184e-001	-2.245876e+001
2049202460	-7.888900e-002	-2.275564e+001
2049352468	-1.239620e-001	-2.241587e+001
2049502475	-1.052227e-001	-2.245825e+001
2049652483	-7.773770e-002	-2.279113e+001
2049802490	-9.206360e-002	-2.263354e+001
2049952498	-1.046021e-001	-2.254010e+001
2050102505	-9.426946e-002	-2.263910e+001
2050252513	-1.736276e-001	-2.245093e+001
2050402520	-7.712919e-002	-2.275274e+001
2050552528	-1.144871e-001	-2.270689e+001
2050702535	-1.751623e-001	-2.262470e+001
2050852543	-7.410923e-002	-2.282697e+001
2051002550	-1.713713e-001	-2.263062e+001
2051152558	-1.390147e-001	-2.253892e+001
2051302565	-9.281285e-002	-2.256071e+001
2051452573	-1.763561e-001	-2.242698e+001
2051602580	-9.446345e-002	-2.265323e+001
2051752588	-1.008770e-001	-2.257595e+001
2051902595	-1.552759e-001	-2.238027e+001
2052052603	-7.376275e-002	-2.268575e+001
2052202610	-1.013075e-001	-2.264442e+001
2052352618	-1.867334e-001	-2.250062e+001
2052502625	-8.981259e-002	-2.251439e+001
2052652633	-1.246556e-001	-2.234963e+001
2052802640	-7.380258e-002	-2.262947e+001
2052952648	-8.090450e-002	-2.253302e+001
2053102655	-1.078775e-001	-2.248409e+001
2053252663	-1.067088e-001	-2.252871e+001
2053402670	-9.158610e-002	-2.255586e+001
2053552678	-1.903488e-001	-2.255102e+001
2053702685	-8.192067e-002	-2.257790e+001
2053852693	-7.675703e-002	-2.266507e+001
2054002700	-1.748953e-001	-2.251210e+001
2054152708	-6.860228e-002	-2.274492e+001
2054302715	-1.138983e-001	-2.248465e+001
2054452723	-1.556451e-001	-2.233489e+001
2054602730	-1.635030e-001	-2.236922e+001
2054752738	-1.680455e-001	-2.244771e+001
2054902745	-6.955160e-002	-2.270757e+001
2055052753	-1.489112e-001	-2.256802e+001
2055202760	-1.449125e-001	-2.256894e+001
2055352768	-6.877787e-002	-2.275203e+001
2055502775	-1.095258e-001	-2.258302e+001
2055652783	-1.883034e-001	-2.253260e+001
2055802790	-9.236434e-002	-2.249047e+001
2055952798	-1.262501e-001	-2.234582e+001
2056102805	-8.130913e-002	-2.252314e+001
2056252813	-1.615779e-001	-2.233549e+001
2056402820	-9.307038e-002	-2.238071e+001
2056552828	-9.082790e-002	-2.243856e+001
2056702835	-1.627203e-001	-2.241077e+001
2056852843	-1.732010e-001	-2.249225e+001
2057002850	-6.599553e-002	-2.264152e+001
2057152858	-1.283985e-001	-2.245173e+001
2057302865	-1.366203e-001	-2.247145e+001
2057452873	-6.857651e-002	-2.267377e+001
2057602880	-1.899738e-001	-2.253452e+001
2057752888	-8.989571e-002	-2.250829e+001
2057902895	-1.623704e-001	-2.243589e+001
2058052903	-1.908809e-001	-2.254931e+001
2058202910	-8.978665e-002	-2.248983e+001
2058352918	-1.653035e-001	-2.252670e+001
2058502925	-1.245309e-001	-2.250638e+001
2058652933	-7.122640e-002	-2.258799e+001
2058802940	-1.837127e-001	-2.248464e+001
2058952948	-1.762437e-001	-2.249430e+001
2059102955	-1.144028e-001	-2.249434e+001
2059252963	-1.893301e-001	-2.253121e+001
2059402970	-1.219125e-001	-2.233089e+001
2059552978	-1.800672e-001	-2.243882e+001
2059702985	-1.764346e-001	-2.241457e+001
2059852993	-1.233454e-001	-2.240231e+001
2060003000	-1.509935e-001	-2.245885e+001
2060153008	-1.660443e-001	-2.239929e+001
2060303015	-7.255284e-002	-2.239890e+001
2060453023	-1.439096e-001	-2.232271e+001
2060603030	-1.285223e-001	-2.246381e+001
2060753038	-7.674792e-002	-2.260288e+001
2060903045	-1.876583e-001	-2.251133e+001
2061053053	-7.625803e-002	-2.244928e+001
2061203060	-1.618166e-001	-2.242252e+001
2061353068	-1.744549e-001	-2.244361e+001
2061503075	-6.148627e-002	-2.259962e+001
2061653083	-1.769169e-001	-2.247631e+001
2061803090	-1.104016e-001	-2.253800e+001
2061953098	-7.155505e-002	-2.258623e+001
2062103105	-1.846392e-001	-2.249260e+001
2062253113	-1.543609e-001	-2.242351e+001
2062403120	-1.079018e-001	-2.240467e+001
2062553128	-1.823927e-001	-2.246876e+001
2062703135	-1.082621e-001	-2.226727e+001
2062853143	-1.791968e-001	-2.241113e+001
2063003150	-1.811702e-001	-2.242005e+001
2063153158	-6.623596e-002	-2.251736e+001
2063303165	-1.654460e-001	-2.244677e+001
2063453173	-1.327365e-001	-2.245552e+001
2063603180	-5.897430e-002	-2.254009e+001
2063753188	-1.306814e-001	-2.233203e+001
2063903195	-1.097495e-001	-2.241207e+001
2064053203	-5.844656e-002	-2.265428e+001
2064203210	-1.673348e-001	-2.237945e+001
2064353218	-8.095702e-002	-2.232994e+001
2064503225	-1.500826e-001	-2.237940e+001
2064653233	-1.775540e-001	-2.244037e+001
2064803240	-6.409836e-002	-2.252607e+001
2064953248	-1.562019e-001	-2.230797e+001
2065103255	-8.310473e-002	-2.253866e+001
2065253263	-9.702912e-002	-2.255805e+001
2065403270	-1.863982e-001	-2.250409e+001
2065553278	-1.236176e-001	-2.242503e+001
2065703285	-1.147098e-001	-2.247007e+001
2065853293	-1.651616e-001	-2.240666e+001
2066003300	-8.166844e-002	-2.235273e+001
2066153308	-1.786159e-001	-2.242217e+001
2066303315	-1.200715e-001	-2.220780e+001
2066453323	-7.682979e-002	-2.242194e+001
2066603330	-1.820906e-001	-2.249974e+001
2066753338	-1.033560e-001	-2.247253e+001
2066903345	-1.411491e-001	-2.227546e+001
2067053353	-1.452742e-001	-2.233696e+001
2067203360	-6.785921e-002	-2.245364e+001
2067353368	-7.465191e-002	-2.250403e+001
2067503375	-1.559017e-001	-2.244452e+001
2067653383	-5.524494e-002	-2.263552e+001
2067803390	-1.487108e-001	-2.240206e+001
2067953398	-1.623913e-001	-2.241016e+001
2068103405	-5.471609e-002	-2.262394e+001
2068253413	-1.311118e-001	-2.237092e+001
2068403420	-7.570944e-002	-2.250997e+001
2068553428	-1.050802e-001	-2.251226e+001
2068703435	-1.840048e-001	-2.251179e+001
2068853443	-1.025396e-001	-2.237150e+001
2069003450	-1.253301e-001	-2.250397e+001
2069153458	-1.814092e-001	-2.248517e+001
2069303465	-7.243611e-002	-2.236188e+001
2069453473	-7.435631e-002	-2.232947e+001
2069603480	-1.781079e-001	-2.247812e+001
2069753488	-9.823284e-002	-2.236517e+001
2069903495	-1.769789e-001	-2.246840e+001
2070053503	-1.358777e-001	-2.242308e+001
2070203510	-1.243351e-001	-2.238519e+001
2070353518	-1.840461e-001	-2.251637e+001
2070503525	-1.213126e-001	-2.241627e+001
2070653533	-5.495664e-002	-2.264486e+001
2070803540	-1.697640e-001	-2.240533e+001
2070953548	-1.061102e-001	-2.225483e+001
2071103555	-1.655002e-001	-2.233652e+001
2071253563	-1.556844e-001	-2.240925e+001
2071403570	-6.464108e-002	-2.249210e+001
2071553578	-1.752562e-001	-2.242939e+001
2071703585	-6.774373e-002	-2.255881e+001
2071853593	-1.357677e-001	-2.247288e+001
