!Agilent Technologies,E5071C,MY46214220,A.11.31
!Date: Fri Sep 22 10:37:30 2017
!Data & Calibration Information:
!Freq	S11:SOLT1(ON)
!PortZ  Port1:50+j0
!Above PortZ is port z conversion or system Z0 setting when saving the data.
!When reading, reference impedance value at option line is always used.
# Hz S dB R 50
2000000000	-1.201046e-001	-1.449406e+001
2000150008	-1.162706e-001	-1.452572e+001
2000300015	-6.319214e-002	-1.467889e+001
2000450023	-1.268380e-001	-1.451746e+001
2000600030	-6.918227e-002	-1.461975e+001
2000750038	-1.282104e-001	-1.455376e+001
2000900045	-1.203626e-001	-1.455446e+001
2001050053	-6.180125e-002	-1.468977e+001
2001200060	-1.134201e-001	-1.452082e+001
2001350068	-9.166550e-002	-1.457411e+001
2001500075	-8.041093e-002	-1.462596e+001
2001650083	-1.464676e-001	-1.467827e+001
2001800090	-1.391953e-001	-1.458814e+001
2001950098	-1.155163e-001	-1.454584e+001
2002100105	-1.383328e-001	-1.456700e+001
2002250113	-7.712858e-002	-1.462336e+001
2002400120	-1.042372e-001	-1.449616e+001
2002550128	-8.213970e-002	-1.459420e+001
2002700135	-1.244393e-001	-1.455157e+001
2002850143	-1.182978e-001	-1.453763e+001
2003000150	-1.199664e-001	-1.453767e+001
2003150158	-1.202047e-001	-1.454075e+001
2003300165	-9.294988e-002	-1.456323e+001
2003450173	-1.254219e-001	-1.455037e+001
2003600180	-7.028117e-002	-1.475554e+001
2003750188	-1.179890e-001	-1.465101e+001
2003900195	-1.205865e-001	-1.456126e+001
2004050203	-1.412765e-001	-1.466032e+001
2004200210	-1.043034e-001	-1.457697e+001
2004350218	-8.828129e-002	-1.462127e+001
2004500225	-1.352551e-001	-1.471367e+001
2004650233	-8.500859e-002	-1.475452e+001
2004800240	-8.990134e-002	-1.478739e+001
2004950248	-1.433217e-001	-1.470621e+001
2005100255	-1.535823e-001	-1.479674e+001
2005250263	-9.932009e-002	-1.472769e+001
2005400270	-9.630963e-002	-1.464730e+001
2005550278	-1.297360e-001	-1.472985e+001
2005700285	-1.304839e-001	-1.473715e+001
2005850293	-7.016760e-002	-1.487448e+001
2006000300	-1.290811e-001	-1.475976e+001
2006150308	-1.542728e-001	-1.482267e+001
2006300315	-1.356605e-001	-1.472679e+001
2006450323	-8.283076e-002	-1.475838e+001
2006600330	-8.445181e-002	-1.477836e+001
2006750338	-1.302883e-001	-1.468924e+001
2006900345	-7.365133e-002	-1.492603e+001
2007050353	-7.812957e-002	-1.482567e+001
2007200360	-1.191999e-001	-1.479057e+001
2007350368	-1.574748e-001	-1.484507e+001
2007500375	-1.424312e-001	-1.478208e+001
2007650383	-9.468670e-002	-1.487481e+001
2007800390	-1.063769e-001	-1.479284e+001
2007950398	-1.011302e-001	-1.480319e+001
2008100405	-7.335295e-002	-1.497675e+001
2008250413	-8.187107e-002	-1.484966e+001
2008400420	-1.462504e-001	-1.486753e+001
2008550428	-1.272582e-001	-1.482593e+001
2008700435	-8.450850e-002	-1.482832e+001
2008850443	-1.389079e-001	-1.488803e+001
2009000450	-1.329473e-001	-1.490204e+001
2009150458	-8.457340e-002	-1.493672e+001
2009300465	-1.471452e-001	-1.490479e+001
2009450473	-1.321764e-001	-1.481890e+001
2009600480	-1.560929e-001	-1.491511e+001
2009750488	-1.427455e-001	-1.491307e+001
2009900495	-1.032104e-001	-1.488373e+001
2010050503	-1.558134e-001	-1.494614e+001
2010200510	-8.023216e-002	-1.502265e+001
2010350518	-9.403070e-002	-1.495670e+001
2010500525	-1.590498e-001	-1.499220e+001
2010650533	-1.111250e-001	-1.494784e+001
2010800540	-1.132640e-001	-1.493656e+001
2010950548	-1.269697e-001	-1.491527e+001
2011100555	-1.321972e-001	-1.494139e+001
2011250563	-1.213273e-001	-1.492476e+001
2011400570	-9.997106e-002	-1.493653e+001
2011550578	-1.011477e-001	-1.488859e+001
2011700585	-1.584909e-001	-1.502685e+001
2011850593	-1.082049e-001	-1.500920e+001
2012000600	-9.276692e-002	-1.503771e+001
2012150608	-1.628491e-001	-1.507100e+001
2012300615	-1.043437e-001	-1.509103e+001
2012450623	-1.226004e-001	-1.508877e+001
2012600630	-1.548848e-001	-1.504394e+001
2012750638	-9.434184e-002	-1.496742e+001
2012900645	-1.569060e-001	-1.504092e+001
2013050653	-1.505394e-001	-1.503310e+001
2013200660	-9.568212e-002	-1.510108e+001
2013350668	-1.625123e-001	-1.510999e+001
2013500675	-9.599969e-002	-1.514349e+001
2013650683	-9.877696e-002	-1.513390e+001
2013800690	-1.636753e-001	-1.512267e+001
2013950698	-9.901266e-002	-1.508233e+001
2014100705	-1.253095e-001	-1.512001e+001
2014250713	-1.471893e-001	-1.508844e+001
2014400720	-8.200577e-002	-1.520582e+001
2014550728	-8.215923e-002	-1.519073e+001
2014700735	-1.465783e-001	-1.505185e+001
2014850743	-8.438989e-002	-1.516390e+001
2015000750	-1.532693e-001	-1.513182e+001
2015150758	-1.156301e-001	-1.514147e+001
2015300765	-8.005964e-002	-1.524337e+001
2015450773	-1.633190e-001	-1.517284e+001
2015600780	-1.107917e-001	-1.518716e+001
2015750788	-9.816976e-002	-1.523388e+001
2015900795	-1.657878e-001	-1.519543e+001
2016050803	-1.199473e-001	-1.500280e+001
2016200810	-1.429119e-001	-1.513111e+001
2016350818	-1.601459e-001	-1.520601e+001
2016500825	-8.381808e-002	-1.525888e+001
2016650833	-1.653486e-001	-1.522336e+001
2016800840	-1.253194e-001	-1.524037e+001
2016950848	-8.237503e-002	-1.531647e+001
2017100855	-1.664349e-001	-1.522848e+001
2017250863	-1.237298e-001	-1.523740e+001
2017400870	-1.035371e-001	-1.524586e+001
2017550878	-1.668150e-001	-1.522385e+001
2017700885	-9.106544e-002	-1.524938e+001
2017850893	-8.736281e-002	-1.531062e+001
2018000900	-1.664563e-001	-1.525950e+001
2018150908	-9.015921e-002	-1.533082e+001
2018300915	-1.538523e-001	-1.524478e+001
2018450923	-1.315387e-001	-1.525591e+001
2018600930	-7.945433e-002	-1.536292e+001
2018750938	-1.601127e-001	-1.526914e+001
2018900945	-1.105229e-001	-1.529381e+001
2019050953	-1.044763e-001	-1.533333e+001
2019200960	-1.675604e-001	-1.530866e+001
2019350968	-1.052785e-001	-1.524338e+001
2019500975	-1.317143e-001	-1.523986e+001
2019650983	-1.678509e-001	-1.530662e+001
2019800990	-9.805060e-002	-1.527054e+001
2019950998	-1.660013e-001	-1.533742e+001
2020101005	-1.242144e-001	-1.533611e+001
2020251013	-8.665491e-002	-1.537627e+001
2020401020	-1.682112e-001	-1.534464e+001
2020551028	-1.447816e-001	-1.525663e+001
2020701035	-1.067764e-001	-1.529674e+001
2020851043	-1.675367e-001	-1.533565e+001
2021001050	-1.386796e-001	-1.524798e+001
2021151058	-8.893582e-002	-1.534616e+001
2021301065	-1.572229e-001	-1.529825e+001
2021451073	-8.258094e-002	-1.542588e+001
2021601080	-1.512957e-001	-1.532190e+001
2021751088	-1.390930e-001	-1.534971e+001
2021901095	-8.196403e-002	-1.546497e+001
2022051103	-1.493152e-001	-1.535612e+001
2022201110	-1.250269e-001	-1.537046e+001
2022351118	-9.256064e-002	-1.540688e+001
2022501125	-1.669719e-001	-1.536363e+001
2022651133	-9.577754e-002	-1.530577e+001
2022801140	-1.393909e-001	-1.528271e+001
2022951148	-1.546760e-001	-1.537842e+001
2023101155	-9.662708e-002	-1.543249e+001
2023251163	-1.676419e-001	-1.540806e+001
2023401170	-9.682016e-002	-1.543738e+001
2023551178	-1.113472e-001	-1.537515e+001
2023701185	-1.681389e-001	-1.542793e+001
2023851193	-1.075532e-001	-1.537346e+001
2024001200	-1.299351e-001	-1.540918e+001
2024151208	-1.544980e-001	-1.537575e+001
2024301215	-8.391604e-002	-1.540610e+001
2024451223	-1.560363e-001	-1.537643e+001
2024601230	-1.455744e-001	-1.540789e+001
2024751238	-9.210692e-002	-1.548113e+001
2024901245	-1.660844e-001	-1.543273e+001
2025051253	-1.076678e-001	-1.541332e+001
2025201260	-9.060105e-002	-1.549938e+001
2025351268	-1.687181e-001	-1.544723e+001
2025501275	-1.004956e-001	-1.548245e+001
2025651283	-1.152573e-001	-1.548056e+001
2025801290	-1.485663e-001	-1.542478e+001
2025951298	-7.986816e-002	-1.551334e+001
2026101305	-1.576169e-001	-1.543278e+001
2026251313	-1.452686e-001	-1.545042e+001
2026401320	-9.048750e-002	-1.553158e+001
2026551328	-1.667891e-001	-1.546258e+001
2026701335	-9.885518e-002	-1.547557e+001
2026851343	-1.061158e-001	-1.549135e+001
2027001350	-1.671922e-001	-1.547150e+001
2027151358	-1.174786e-001	-1.548300e+001
2027301365	-1.392912e-001	-1.546885e+001
2027451373	-1.578795e-001	-1.544965e+001
2027601380	-8.124276e-002	-1.554976e+001
2027751388	-1.264058e-001	-1.547710e+001
2027901395	-1.502452e-001	-1.545713e+001
2028051403	-8.052429e-002	-1.555730e+001
2028201410	-1.567485e-001	-1.548713e+001
2028351418	-1.242881e-001	-1.544721e+001
2028501425	-8.171738e-002	-1.553594e+001
2028651433	-1.652130e-001	-1.547065e+001
2028801440	-9.531979e-002	-1.550522e+001
2028951448	-1.114795e-001	-1.551593e+001
2029101455	-1.660922e-001	-1.549814e+001
2029251463	-8.189250e-002	-1.553792e+001
2029401470	-1.305096e-001	-1.551201e+001
2029551478	-1.481606e-001	-1.546468e+001
2029701485	-8.144650e-002	-1.556917e+001
2029851493	-1.601569e-001	-1.545354e+001
2030001500	-9.259196e-002	-1.551632e+001
2030151508	-9.164676e-002	-1.553885e+001
2030301515	-1.646473e-001	-1.551818e+001
2030451523	-1.183217e-001	-1.550917e+001
2030601530	-1.129223e-001	-1.552011e+001
2030751538	-1.649854e-001	-1.550871e+001
2030901545	-1.043107e-001	-1.546573e+001
2031051553	-9.152933e-002	-1.550988e+001
2031201560	-1.604536e-001	-1.547745e+001
2031351568	-9.023393e-002	-1.551567e+001
2031501575	-1.661773e-001	-1.551896e+001
2031651583	-1.124397e-001	-1.550160e+001
2031801590	-8.586067e-002	-1.557099e+001
2031951598	-1.623154e-001	-1.552394e+001
2032101605	-1.078127e-001	-1.552343e+001
2032251613	-9.761324e-002	-1.555521e+001
2032401620	-1.604336e-001	-1.550267e+001
2032551628	-1.074769e-001	-1.534889e+001
2032701635	-1.294469e-001	-1.533854e+001
2032851643	-1.543158e-001	-1.548376e+001
2033001650	-1.001632e-001	-1.541283e+001
2033151658	-1.596697e-001	-1.549807e+001
2033301665	-8.202595e-002	-1.547906e+001
2033451673	-9.664316e-002	-1.538194e+001
2033601680	-1.565783e-001	-1.549025e+001
2033751688	-1.160430e-001	-1.541537e+001
2033901695	-1.242800e-001	-1.546914e+001
2034051703	-1.604703e-001	-1.553683e+001
2034201710	-1.588239e-001	-1.551160e+001
2034351718	-7.814580e-002	-1.550149e+001
2034501725	-1.465918e-001	-1.544010e+001
2034651733	-1.461063e-001	-1.542249e+001
2034801740	-1.530822e-001	-1.549073e+001
2034951748	-1.223407e-001	-1.535282e+001
2035101755	-1.335385e-001	-1.540621e+001
2035251763	-1.430505e-001	-1.546096e+001
2035401770	-1.153662e-001	-1.549081e+001
2035551778	-9.388391e-002	-1.548229e+001
2035701785	-1.012879e-001	-1.541806e+001
2035851793	-1.078135e-001	-1.541705e+001
2036001800	-1.287984e-001	-1.535706e+001
2036151808	-1.151445e-001	-1.540958e+001
2036301815	-9.915687e-002	-1.544082e+001
2036451823	-1.239422e-001	-1.548216e+001
2036601830	-7.726870e-002	-1.551390e+001
2036751838	-1.119765e-001	-1.537631e+001
2036901845	-1.199498e-001	-1.543210e+001
2037051853	-1.189315e-001	-1.541713e+001
2037201860	-8.822035e-002	-1.537964e+001
2037351868	-9.310616e-002	-1.535151e+001
2037501875	-1.488932e-001	-1.547799e+001
2037651883	-8.774590e-002	-1.543229e+001
2037801890	-6.972393e-002	-1.549544e+001
2037951898	-1.140331e-001	-1.533852e+001
2038101905	-1.306047e-001	-1.536671e+001
2038251913	-9.160042e-002	-1.534924e+001
2038401920	-9.083510e-002	-1.538985e+001
2038551928	-9.725478e-002	-1.533532e+001
2038701935	-8.351943e-002	-1.542419e+001
2038851943	-6.548923e-002	-1.554336e+001
2039001950	-6.690073e-002	-1.546492e+001
2039151958	-1.448984e-001	-1.547914e+001
2039301965	-1.020521e-001	-1.543755e+001
2039451973	-6.329057e-002	-1.557312e+001
2039601980	-1.207100e-001	-1.541343e+001
2039751988	-9.153254e-002	-1.546446e+001
2039901995	-6.643623e-002	-1.556029e+001
2040052003	-1.309471e-001	-1.539658e+001
2040202010	-8.013818e-002	-1.540278e+001
2040352018	-1.434467e-001	-1.540754e+001
2040502025	-1.367538e-001	-1.540563e+001
2040652033	-7.297079e-002	-1.545469e+001
2040802040	-1.503728e-001	-1.549829e+001
2040952048	-7.983558e-002	-1.549313e+001
2041102055	-7.840679e-002	-1.548757e+001
2041252063	-1.463089e-001	-1.548091e+001
2041402070	-9.578702e-002	-1.547847e+001
2041552078	-8.223441e-002	-1.547903e+001
2041702085	-1.477397e-001	-1.547678e+001
2041852093	-1.376901e-001	-1.537757e+001
2042002100	-7.019360e-002	-1.542052e+001
2042152108	-9.950996e-002	-1.540297e+001
2042302115	-7.590797e-002	-1.539303e+001
2042452123	-1.197456e-001	-1.539912e+001
2042602130	-1.152433e-001	-1.535335e+001
2042752138	-5.830231e-002	-1.550196e+001
2042902145	-9.679370e-002	-1.542109e+001
2043052153	-9.291679e-002	-1.535472e+001
2043202160	-6.171184e-002	-1.550777e+001
2043352168	-1.107771e-001	-1.528418e+001
2043502175	-1.044933e-001	-1.528625e+001
2043652183	-9.216963e-002	-1.530751e+001
2043802190	-8.735678e-002	-1.529015e+001
2043952198	-9.744535e-002	-1.523906e+001
2044102205	-1.189570e-001	-1.525988e+001
2044252213	-6.085916e-002	-1.542913e+001
2044402220	-7.687634e-002	-1.530225e+001
2044552228	-1.014015e-001	-1.523636e+001
2044702235	-7.691194e-002	-1.528133e+001
2044852243	-8.636838e-002	-1.523445e+001
2045002250	-8.660700e-002	-1.523334e+001
2045152258	-9.669421e-002	-1.523151e+001
2045302265	-8.417092e-002	-1.526147e+001
2045452273	-5.438892e-002	-1.545040e+001
2045602280	-6.747870e-002	-1.530099e+001
2045752288	-1.122700e-001	-1.522422e+001
2045902295	-6.048245e-002	-1.536460e+001
2046052303	-6.016284e-002	-1.531334e+001
2046202310	-9.521274e-002	-1.521020e+001
2046352318	-7.636565e-002	-1.529408e+001
2046502325	-5.239421e-002	-1.540982e+001
2046652333	-6.583947e-002	-1.528653e+001
2046802340	-6.974018e-002	-1.530407e+001
2046952348	-1.181508e-001	-1.523521e+001
2047102355	-6.836338e-002	-1.528634e+001
2047252363	-5.582041e-002	-1.535531e+001
2047402370	-1.226258e-001	-1.526476e+001
2047552378	-4.886285e-002	-1.542048e+001
2047702385	-6.278794e-002	-1.529320e+001
2047852393	-8.390590e-002	-1.516270e+001
2048002400	-5.973844e-002	-1.526296e+001
2048152408	-7.110087e-002	-1.521186e+001
2048302415	-6.922343e-002	-1.522081e+001
2048452423	-7.868798e-002	-1.522669e+001
2048602430	-7.158725e-002	-1.523518e+001
2048752438	-4.682344e-002	-1.539820e+001
2048902445	-7.481950e-002	-1.519230e+001
2049052453	-1.072440e-001	-1.519585e+001
2049202460	-4.507931e-002	-1.537436e+001
2049352468	-7.688020e-002	-1.515179e+001
2049502475	-6.409751e-002	-1.517739e+001
2049652483	-4.524934e-002	-1.538697e+001
2049802490	-5.658720e-002	-1.528161e+001
2049952498	-6.309863e-002	-1.522471e+001
2050102505	-5.671341e-002	-1.528136e+001
2050252513	-1.122909e-001	-1.518561e+001
2050402520	-4.392079e-002	-1.536095e+001
2050552528	-6.899951e-002	-1.532745e+001
2050702535	-1.102815e-001	-1.531095e+001
2050852543	-3.954308e-002	-1.539899e+001
2051002550	-1.056537e-001	-1.530449e+001
2051152558	-8.559549e-002	-1.523477e+001
2051302565	-5.466615e-002	-1.523002e+001
2051452573	-1.120325e-001	-1.516920e+001
2051602580	-5.451030e-002	-1.528518e+001
2051752588	-6.152429e-002	-1.523851e+001
2051902595	-9.781153e-002	-1.511722e+001
2052052603	-4.108887e-002	-1.529987e+001
2052202610	-6.005474e-002	-1.528872e+001
2052352618	-1.177828e-001	-1.520637e+001
2052502625	-5.188795e-002	-1.518889e+001
2052652633	-7.616881e-002	-1.507625e+001
2052802640	-3.872281e-002	-1.526392e+001
2052952648	-4.471761e-002	-1.518881e+001
2053102655	-6.290726e-002	-1.517043e+001
2053252663	-6.326199e-002	-1.519274e+001
2053402670	-5.206694e-002	-1.521333e+001
2053552678	-1.195002e-001	-1.523155e+001
2053702685	-4.730180e-002	-1.521921e+001
2053852693	-4.280473e-002	-1.527677e+001
2054002700	-1.073623e-001	-1.520176e+001
2054152708	-3.553962e-002	-1.533216e+001
2054302715	-6.735942e-002	-1.515333e+001
2054452723	-9.521497e-002	-1.506174e+001
2054602730	-1.022750e-001	-1.508914e+001
2054752738	-1.026964e-001	-1.515216e+001
2054902745	-3.470782e-002	-1.529595e+001
2055052753	-8.798886e-002	-1.521915e+001
2055202760	-8.587611e-002	-1.521323e+001
2055352768	-3.379538e-002	-1.531928e+001
2055502775	-6.131980e-002	-1.521840e+001
2055652783	-1.158503e-001	-1.521279e+001
2055802790	-5.055442e-002	-1.514738e+001
2055952798	-7.509347e-002	-1.505899e+001
2056102805	-4.310043e-002	-1.516438e+001
2056252813	-9.879175e-002	-1.506346e+001
2056402820	-5.290206e-002	-1.506985e+001
2056552828	-5.039363e-002	-1.509800e+001
2056702835	-9.825674e-002	-1.509002e+001
2056852843	-1.044308e-001	-1.515474e+001
2057002850	-3.076898e-002	-1.522958e+001
2057152858	-7.357797e-002	-1.512049e+001
2057302865	-7.981465e-002	-1.513356e+001
2057452873	-3.309209e-002	-1.524338e+001
2057602880	-1.145306e-001	-1.518498e+001
2057752888	-4.810442e-002	-1.514215e+001
2057902895	-9.624235e-002	-1.511194e+001
2058052903	-1.159946e-001	-1.520128e+001
2058202910	-4.783913e-002	-1.512965e+001
2058352918	-9.873083e-002	-1.517102e+001
2058502925	-7.054508e-002	-1.515091e+001
2058652933	-3.379770e-002	-1.517668e+001
2058802940	-1.107728e-001	-1.514477e+001
2058952948	-1.049338e-001	-1.514940e+001
2059102955	-6.410975e-002	-1.513650e+001
2059252963	-1.126942e-001	-1.516728e+001
2059402970	-7.045452e-002	-1.502273e+001
2059552978	-1.067070e-001	-1.510332e+001
2059702985	-1.040385e-001	-1.508712e+001
2059852993	-6.935464e-002	-1.506390e+001
2060003000	-8.831749e-002	-1.510421e+001
2060153008	-9.844407e-002	-1.506996e+001
2060303015	-3.746861e-002	-1.504143e+001
2060453023	-8.276974e-002	-1.500486e+001
2060603030	-7.058703e-002	-1.509986e+001
2060753038	-3.472818e-002	-1.516579e+001
2060903045	-1.089058e-001	-1.514097e+001
2061053053	-3.487297e-002	-1.506618e+001
2061203060	-9.307609e-002	-1.507936e+001
2061353068	-1.022201e-001	-1.508789e+001
2061503075	-2.420967e-002	-1.514443e+001
2061653083	-1.022948e-001	-1.511952e+001
2061803090	-5.786931e-002	-1.513525e+001
2061953098	-3.053725e-002	-1.515393e+001
2062103105	-1.075892e-001	-1.512258e+001
2062253113	-8.878326e-002	-1.505769e+001
2062403120	-5.590503e-002	-1.503557e+001
2062553128	-1.075012e-001	-1.510907e+001
2062703135	-5.802133e-002	-1.494276e+001
2062853143	-1.034401e-001	-1.505430e+001
2063003150	-1.055404e-001	-1.508256e+001
2063153158	-2.790210e-002	-1.509724e+001
2063303165	-9.604737e-002	-1.507610e+001
2063453173	-7.084584e-002	-1.507156e+001
2063603180	-2.296246e-002	-1.509817e+001
2063753188	-7.295153e-002	-1.498467e+001
2063903195	-5.569359e-002	-1.503123e+001
2064053203	-2.095796e-002	-1.518504e+001
2064203210	-9.547718e-002	-1.503321e+001
2064353218	-3.845099e-002	-1.496811e+001
2064503225	-8.606627e-002	-1.502391e+001
2064653233	-1.007659e-001	-1.507235e+001
2064803240	-2.461559e-002	-1.508543e+001
2064953248	-8.740818e-002	-1.498048e+001
2065103255	-3.675168e-002	-1.510167e+001
2065253263	-4.672688e-002	-1.510415e+001
2065403270	-1.062936e-001	-1.511269e+001
2065553278	-6.490282e-002	-1.504324e+001
2065703285	-6.009347e-002	-1.507739e+001
2065853293	-9.360156e-002	-1.504292e+001
2066003300	-3.748864e-002	-1.497279e+001
2066153308	-1.010505e-001	-1.504554e+001
2066303315	-6.261219e-002	-1.489178e+001
2066453323	-3.352162e-002	-1.500227e+001
2066603330	-1.027770e-001	-1.509644e+001
2066753338	-5.089490e-002	-1.505292e+001
2066903345	-7.671255e-002	-1.493765e+001
2067053353	-7.968031e-002	-1.499079e+001
2067203360	-2.789989e-002	-1.503315e+001
2067353368	-3.033388e-002	-1.507185e+001
2067503375	-8.583014e-002	-1.505032e+001
2067653383	-1.809603e-002	-1.515440e+001
2067803390	-8.232275e-002	-1.500963e+001
2067953398	-8.973762e-002	-1.503157e+001
2068103405	-1.682466e-002	-1.512954e+001
2068253413	-6.899123e-002	-1.498162e+001
2068403420	-3.134684e-002	-1.506650e+001
2068553428	-5.091820e-002	-1.507412e+001
2068703435	-1.033699e-001	-1.509489e+001
2068853443	-4.967959e-002	-1.498261e+001
2069003450	-6.574960e-002	-1.506550e+001
2069153458	-1.017859e-001	-1.506808e+001
2069303465	-2.997984e-002	-1.496407e+001
2069453473	-3.099055e-002	-1.493682e+001
2069603480	-1.007097e-001	-1.507183e+001
2069753488	-4.921762e-002	-1.496563e+001
2069903495	-9.832332e-002	-1.506602e+001
2070053503	-7.222012e-002	-1.502586e+001
2070203510	-6.370704e-002	-1.497425e+001
2070353518	-1.030990e-001	-1.509664e+001
2070503525	-6.180143e-002	-1.499832e+001
2070653533	-1.626292e-002	-1.513968e+001
2070803540	-9.513502e-002	-1.501781e+001
2070953548	-5.202209e-002	-1.489672e+001
2071103555	-9.389934e-002	-1.496547e+001
2071253563	-8.444160e-002	-1.499854e+001
2071403570	-2.381103e-002	-1.503958e+001
2071553578	-9.899667e-002	-1.502453e+001
2071703585	-2.596974e-002	-1.508607e+001
2071853593	-7.139572e-002	-1.504879e+001
