!Agilent Technologies,E5071C,MY46214220,A.11.31
!Date: Fri Sep 22 10:07:49 2017
!Data & Calibration Information:
!Freq	S11:SOLT1(ON)
!PortZ  Port1:50+j0
!Above PortZ is port z conversion or system Z0 setting when saving the data.
!When reading, reference impedance value at option line is always used.
# Hz S dB R 50
2000000000	-2.432546e-001	-2.767131e+001
2000150008	-2.337450e-001	-2.769446e+001
2000300015	-1.410707e-001	-2.806641e+001
2000450023	-2.561373e-001	-2.767977e+001
2000600030	-1.526438e-001	-2.792290e+001
2000750038	-2.599278e-001	-2.770582e+001
2000900045	-2.423329e-001	-2.774086e+001
2001050053	-1.413828e-001	-2.805161e+001
2001200060	-2.307757e-001	-2.766860e+001
2001350068	-1.871061e-001	-2.779535e+001
2001500075	-1.656418e-001	-2.790624e+001
2001650083	-2.933999e-001	-2.786627e+001
2001800090	-2.747282e-001	-2.771399e+001
2001950098	-2.277358e-001	-2.766069e+001
2002100105	-2.686149e-001	-2.768067e+001
2002250113	-1.566190e-001	-2.782793e+001
2002400120	-2.072012e-001	-2.755574e+001
2002550128	-1.639807e-001	-2.772415e+001
2002700135	-2.430223e-001	-2.764583e+001
2002850143	-2.285361e-001	-2.759931e+001
2003000150	-2.325841e-001	-2.760010e+001
2003150158	-2.277739e-001	-2.758764e+001
2003300165	-1.838521e-001	-2.767035e+001
2003450173	-2.441666e-001	-2.759717e+001
2003600180	-1.461523e-001	-2.805721e+001
2003750188	-2.313863e-001	-2.776573e+001
2003900195	-2.332005e-001	-2.758197e+001
2004050203	-2.712462e-001	-2.773615e+001
2004200210	-1.993280e-001	-2.762213e+001
2004350218	-1.708449e-001	-2.772538e+001
2004500225	-2.656332e-001	-2.781053e+001
2004650233	-1.675095e-001	-2.796290e+001
2004800240	-1.760010e-001	-2.799880e+001
2004950248	-2.745159e-001	-2.776551e+001
2005100255	-2.936809e-001	-2.793749e+001
2005250263	-1.889447e-001	-2.786694e+001
2005400270	-1.813641e-001	-2.769716e+001
2005550278	-2.494500e-001	-2.781689e+001
2005700285	-2.502154e-001	-2.781374e+001
2005850293	-1.430062e-001	-2.814405e+001
2006000300	-2.474018e-001	-2.784012e+001
2006150308	-2.929114e-001	-2.790339e+001
2006300315	-2.532224e-001	-2.774483e+001
2006450323	-1.563181e-001	-2.786072e+001
2006600330	-1.639364e-001	-2.792669e+001
2006750338	-2.466274e-001	-2.766779e+001
2006900345	-1.448361e-001	-2.819438e+001
2007050353	-1.503913e-001	-2.800884e+001
2007200360	-2.206741e-001	-2.784237e+001
2007350368	-2.928542e-001	-2.791451e+001
2007500375	-2.656642e-001	-2.776677e+001
2007650383	-1.779422e-001	-2.799987e+001
2007800390	-1.989551e-001	-2.783321e+001
2007950398	-1.912965e-001	-2.784784e+001
2008100405	-1.447815e-001	-2.821460e+001
2008250413	-1.525344e-001	-2.796517e+001
2008400420	-2.763433e-001	-2.790588e+001
2008550428	-2.359531e-001	-2.781285e+001
2008700435	-1.564590e-001	-2.791608e+001
2008850443	-2.554327e-001	-2.792180e+001
2009000450	-2.510139e-001	-2.792930e+001
2009150458	-1.591204e-001	-2.808102e+001
2009300465	-2.766359e-001	-2.789313e+001
2009450473	-2.466753e-001	-2.776796e+001
2009600480	-2.864823e-001	-2.791324e+001
2009750488	-2.655226e-001	-2.789230e+001
2009900495	-1.907935e-001	-2.792267e+001
2010050503	-2.892417e-001	-2.794207e+001
2010200510	-1.503683e-001	-2.818862e+001
2010350518	-1.748405e-001	-2.805484e+001
2010500525	-2.924049e-001	-2.796935e+001
2010650533	-2.030869e-001	-2.793985e+001
2010800540	-2.047336e-001	-2.795141e+001
2010950548	-2.308630e-001	-2.787838e+001
2011100555	-2.414561e-001	-2.791431e+001
2011250563	-2.162693e-001	-2.789448e+001
2011400570	-1.734739e-001	-2.793324e+001
2011550578	-1.822759e-001	-2.782517e+001
2011700585	-2.901080e-001	-2.798019e+001
2011850593	-1.959781e-001	-2.803993e+001
2012000600	-1.712157e-001	-2.808710e+001
2012150608	-2.971143e-001	-2.805390e+001
2012300615	-1.888392e-001	-2.815039e+001
2012450623	-2.233084e-001	-2.811237e+001
2012600630	-2.807666e-001	-2.798342e+001
2012750638	-1.698640e-001	-2.790063e+001
2012900645	-2.837839e-001	-2.798005e+001
2013050653	-2.690295e-001	-2.794680e+001
2013200660	-1.705731e-001	-2.810972e+001
2013350668	-2.966068e-001	-2.807284e+001
2013500675	-1.721406e-001	-2.820579e+001
2013650683	-1.789032e-001	-2.815696e+001
2013800690	-2.972665e-001	-2.806037e+001
2013950698	-1.786198e-001	-2.808389e+001
2014100705	-2.277953e-001	-2.808992e+001
2014250713	-2.670469e-001	-2.799788e+001
2014400720	-1.453996e-001	-2.828169e+001
2014550728	-1.453654e-001	-2.825952e+001
2014700735	-2.588278e-001	-2.790373e+001
2014850743	-1.473393e-001	-2.817709e+001
2015000750	-2.735744e-001	-2.802126e+001
2015150758	-2.032577e-001	-2.808376e+001
2015300765	-1.465971e-001	-2.831845e+001
2015450773	-2.931136e-001	-2.805821e+001
2015600780	-1.970814e-001	-2.819171e+001
2015750788	-1.803828e-001	-2.824162e+001
2015900795	-2.957871e-001	-2.808305e+001
2016050803	-2.078106e-001	-2.778639e+001
2016200810	-2.553572e-001	-2.798672e+001
2016350818	-2.900833e-001	-2.808600e+001
2016500825	-1.488656e-001	-2.827561e+001
2016650833	-2.948334e-001	-2.809051e+001
2016800840	-2.246360e-001	-2.816836e+001
2016950848	-1.459680e-001	-2.837783e+001
2017100855	-2.943033e-001	-2.811202e+001
2017250863	-2.210758e-001	-2.816513e+001
2017400870	-1.837465e-001	-2.820326e+001
2017550878	-2.932244e-001	-2.808812e+001
2017700885	-1.557682e-001	-2.822145e+001
2017850893	-1.539272e-001	-2.832304e+001
2018000900	-2.965708e-001	-2.811195e+001
2018150908	-1.542297e-001	-2.833185e+001
2018300915	-2.727365e-001	-2.810135e+001
2018450923	-2.316555e-001	-2.814948e+001
2018600930	-1.435030e-001	-2.841061e+001
2018750938	-2.864975e-001	-2.810551e+001
2018900945	-1.975709e-001	-2.822758e+001
2019050953	-1.846372e-001	-2.831952e+001
2019200960	-2.975619e-001	-2.816980e+001
2019350968	-1.847961e-001	-2.813540e+001
2019500975	-2.338284e-001	-2.807739e+001
2019650983	-2.984066e-001	-2.814917e+001
2019800990	-1.732160e-001	-2.817061e+001
2019950998	-2.974237e-001	-2.819324e+001
2020101005	-2.187172e-001	-2.822062e+001
2020251013	-1.517021e-001	-2.836459e+001
2020401020	-2.980000e-001	-2.817762e+001
2020551028	-2.539853e-001	-2.809287e+001
2020701035	-1.873952e-001	-2.816859e+001
2020851043	-2.946241e-001	-2.816725e+001
2021001050	-2.413888e-001	-2.801885e+001
2021151058	-1.521799e-001	-2.827848e+001
2021301065	-2.767862e-001	-2.809584e+001
2021451073	-1.430519e-001	-2.842034e+001
2021601080	-2.654129e-001	-2.813549e+001
2021751088	-2.465319e-001	-2.818512e+001
2021901095	-1.460448e-001	-2.849258e+001
2022051103	-2.635986e-001	-2.819522e+001
2022201110	-2.204967e-001	-2.824193e+001
2022351118	-1.637685e-001	-2.834515e+001
2022501125	-2.927997e-001	-2.816419e+001
2022651133	-1.645766e-001	-2.814325e+001
2022801140	-2.418002e-001	-2.806265e+001
2022951148	-2.713009e-001	-2.819137e+001
2023101155	-1.627558e-001	-2.836278e+001
2023251163	-2.964512e-001	-2.821211e+001
2023401170	-1.671843e-001	-2.834087e+001
2023551178	-1.962064e-001	-2.822672e+001
2023701185	-2.973409e-001	-2.823534e+001
2023851193	-1.894061e-001	-2.825029e+001
2024001200	-2.290154e-001	-2.827628e+001
2024151208	-2.730976e-001	-2.814355e+001
2024301215	-1.443379e-001	-2.831791e+001
2024451223	-2.705039e-001	-2.815341e+001
2024601230	-2.567224e-001	-2.821010e+001
2024751238	-1.616194e-001	-2.843400e+001
2024901245	-2.962461e-001	-2.825957e+001
2025051253	-1.884812e-001	-2.828220e+001
2025201260	-1.566712e-001	-2.845056e+001
2025351268	-2.983226e-001	-2.825091e+001
2025501275	-1.770871e-001	-2.841180e+001
2025651283	-2.013835e-001	-2.835404e+001
2025801290	-2.643037e-001	-2.822861e+001
2025951298	-1.418517e-001	-2.848672e+001
2026101305	-2.804404e-001	-2.824933e+001
2026251313	-2.531603e-001	-2.829614e+001
2026401320	-1.621799e-001	-2.850521e+001
2026551328	-2.986015e-001	-2.828243e+001
2026701335	-1.720522e-001	-2.840822e+001
2026851343	-1.876720e-001	-2.839862e+001
2027001350	-2.989997e-001	-2.829360e+001
2027151358	-2.088055e-001	-2.837624e+001
2027301365	-2.480090e-001	-2.831080e+001
2027451373	-2.821468e-001	-2.825136e+001
2027601380	-1.447608e-001	-2.853177e+001
2027751388	-2.216655e-001	-2.834022e+001
2027901395	-2.685903e-001	-2.827209e+001
2028051403	-1.444348e-001	-2.855694e+001
2028201410	-2.832150e-001	-2.828835e+001
2028351418	-2.203013e-001	-2.828542e+001
2028501425	-1.450385e-001	-2.852380e+001
2028651433	-2.950300e-001	-2.826627e+001
2028801440	-1.738022e-001	-2.843075e+001
2028951448	-2.006665e-001	-2.842513e+001
2029101455	-2.993281e-001	-2.831628e+001
2029251463	-1.506111e-001	-2.849436e+001
2029401470	-2.343051e-001	-2.835148e+001
2029551478	-2.676301e-001	-2.828501e+001
2029701485	-1.477244e-001	-2.856198e+001
2029851493	-2.882889e-001	-2.823279e+001
2030001500	-1.699489e-001	-2.846032e+001
2030151508	-1.671975e-001	-2.848432e+001
2030301515	-3.003045e-001	-2.833600e+001
2030451523	-2.154706e-001	-2.839259e+001
2030601530	-2.084030e-001	-2.841497e+001
2030751538	-2.986002e-001	-2.832959e+001
2030901545	-1.902582e-001	-2.833340e+001
2031051553	-1.700599e-001	-2.842766e+001
2031201560	-2.907032e-001	-2.828470e+001
2031351568	-1.678760e-001	-2.842344e+001
2031501575	-3.024959e-001	-2.834831e+001
2031651583	-2.080404e-001	-2.838735e+001
2031801590	-1.604372e-001	-2.854975e+001
2031951598	-2.995378e-001	-2.834355e+001
2032101605	-2.035283e-001	-2.842244e+001
2032251613	-1.823624e-001	-2.849653e+001
2032401620	-2.968910e-001	-2.834395e+001
2032551628	-1.936892e-001	-2.811658e+001
2032701635	-2.359483e-001	-2.809560e+001
2032851643	-2.859148e-001	-2.830037e+001
2033001650	-1.843124e-001	-2.824521e+001
2033151658	-2.930214e-001	-2.832382e+001
2033301665	-1.548055e-001	-2.838806e+001
2033451673	-1.800877e-001	-2.820465e+001
2033601680	-2.906272e-001	-2.831933e+001
2033751688	-2.177468e-001	-2.824545e+001
2033901695	-2.349155e-001	-2.833591e+001
2034051703	-2.997523e-001	-2.840344e+001
2034201710	-2.966136e-001	-2.836709e+001
2034351718	-1.495067e-001	-2.845453e+001
2034501725	-2.739778e-001	-2.823331e+001
2034651733	-2.701847e-001	-2.820922e+001
2034801740	-2.857150e-001	-2.832433e+001
2034951748	-2.291860e-001	-2.814411e+001
2035101755	-2.500218e-001	-2.820552e+001
2035251763	-2.673095e-001	-2.830300e+001
2035401770	-2.197541e-001	-2.838909e+001
2035551778	-1.805279e-001	-2.839921e+001
2035701785	-1.930772e-001	-2.828536e+001
2035851793	-2.047086e-001	-2.827045e+001
2036001800	-2.409164e-001	-2.813622e+001
2036151808	-2.210648e-001	-2.826562e+001
2036301815	-1.919400e-001	-2.833999e+001
2036451823	-2.369577e-001	-2.837785e+001
2036601830	-1.559254e-001	-2.850869e+001
2036751838	-2.144185e-001	-2.821930e+001
2036901845	-2.303000e-001	-2.832956e+001
2037051853	-2.267143e-001	-2.828840e+001
2037201860	-1.723011e-001	-2.825222e+001
2037351868	-1.810754e-001	-2.819405e+001
2037501875	-2.871936e-001	-2.835530e+001
2037651883	-1.707575e-001	-2.836303e+001
2037801890	-1.454435e-001	-2.850884e+001
2037951898	-2.205771e-001	-2.816919e+001
2038101905	-2.517733e-001	-2.821175e+001
2038251913	-1.810928e-001	-2.823663e+001
2038401920	-1.795070e-001	-2.830344e+001
2038551928	-1.894711e-001	-2.820991e+001
2038701935	-1.693472e-001	-2.838589e+001
2038851943	-1.417542e-001	-2.863222e+001
2039001950	-1.426981e-001	-2.848253e+001
2039151958	-2.841116e-001	-2.839996e+001
2039301965	-2.039731e-001	-2.839465e+001
2039451973	-1.392265e-001	-2.870744e+001
2039601980	-2.448295e-001	-2.833146e+001
2039751988	-1.892128e-001	-2.847864e+001
2039901995	-1.472479e-001	-2.869572e+001
2040052003	-2.576058e-001	-2.829582e+001
2040202010	-1.680151e-001	-2.838321e+001
2040352018	-2.826870e-001	-2.831711e+001
2040502025	-2.719260e-001	-2.831414e+001
2040652033	-1.589041e-001	-2.850810e+001
2040802040	-2.986113e-001	-2.846915e+001
2040952048	-1.728907e-001	-2.857517e+001
2041102055	-1.714258e-001	-2.856704e+001
2041252063	-2.963892e-001	-2.845884e+001
2041402070	-2.048852e-001	-2.853597e+001
2041552078	-1.816657e-001	-2.857841e+001
2041702085	-2.976325e-001	-2.846348e+001
2041852093	-2.780030e-001	-2.831323e+001
2042002100	-1.589285e-001	-2.850503e+001
2042152108	-2.098046e-001	-2.841975e+001
2042302115	-1.694341e-001	-2.845267e+001
2042452123	-2.502088e-001	-2.840312e+001
2042602130	-2.390779e-001	-2.833424e+001
2042752138	-1.403026e-001	-2.869229e+001
2042902145	-2.095606e-001	-2.847602e+001
2043052153	-2.029944e-001	-2.838440e+001
2043202160	-1.504292e-001	-2.869713e+001
2043352168	-2.309402e-001	-2.824668e+001
2043502175	-2.207817e-001	-2.826055e+001
2043652183	-1.980081e-001	-2.831075e+001
2043802190	-1.910135e-001	-2.829421e+001
2043952198	-2.087552e-001	-2.819241e+001
2044102205	-2.464118e-001	-2.821247e+001
2044252213	-1.493560e-001	-2.859701e+001
2044402220	-1.747693e-001	-2.835759e+001
2044552228	-2.177399e-001	-2.818929e+001
2044702235	-1.743872e-001	-2.831697e+001
2044852243	-1.928153e-001	-2.823124e+001
2045002250	-1.922809e-001	-2.824214e+001
2045152258	-2.111333e-001	-2.821257e+001
2045302265	-1.902580e-001	-2.832432e+001
2045452273	-1.400120e-001	-2.870324e+001
2045602280	-1.640961e-001	-2.842229e+001
2045752288	-2.423142e-001	-2.822503e+001
2045902295	-1.524775e-001	-2.854938e+001
2046052303	-1.510113e-001	-2.847961e+001
2046202310	-2.137579e-001	-2.822810e+001
2046352318	-1.822463e-001	-2.843610e+001
2046502325	-1.430405e-001	-2.867144e+001
2046652333	-1.633752e-001	-2.844593e+001
2046802340	-1.732218e-001	-2.846968e+001
2046952348	-2.606478e-001	-2.826773e+001
2047102355	-1.704971e-001	-2.843589e+001
2047252363	-1.532466e-001	-2.862100e+001
2047402370	-2.721656e-001	-2.834985e+001
2047552378	-1.420140e-001	-2.872742e+001
2047702385	-1.633377e-001	-2.847956e+001
2047852393	-1.992527e-001	-2.823194e+001
2048002400	-1.595769e-001	-2.845541e+001
2048152408	-1.771500e-001	-2.836241e+001
2048302415	-1.732559e-001	-2.837549e+001
2048452423	-1.920139e-001	-2.837832e+001
2048602430	-1.798407e-001	-2.840916e+001
2048752438	-1.404776e-001	-2.877195e+001
2048902445	-1.864991e-001	-2.833739e+001
2049052453	-2.480961e-001	-2.830566e+001
2049202460	-1.414919e-001	-2.873920e+001
2049352468	-1.925970e-001	-2.828852e+001
2049502475	-1.697017e-001	-2.835620e+001
2049652483	-1.384601e-001	-2.877928e+001
2049802490	-1.584148e-001	-2.858930e+001
2049952498	-1.711699e-001	-2.846397e+001
2050102505	-1.609341e-001	-2.859741e+001
2050252513	-2.602215e-001	-2.834012e+001
2050402520	-1.421348e-001	-2.876411e+001
2050552528	-1.875017e-001	-2.869218e+001
2050702535	-2.637793e-001	-2.856151e+001
2050852543	-1.384645e-001	-2.887366e+001
2051002550	-2.576103e-001	-2.859096e+001
2051152558	-2.173143e-001	-2.849439e+001
2051302565	-1.609102e-001	-2.854343e+001
2051452573	-2.662635e-001	-2.834919e+001
2051602580	-1.657056e-001	-2.866655e+001
2051752588	-1.714109e-001	-2.857868e+001
2051902595	-2.405869e-001	-2.830419e+001
2052052603	-1.397651e-001	-2.873137e+001
2052202610	-1.745337e-001	-2.867888e+001
2052352618	-2.815189e-001	-2.845622e+001
2052502625	-1.581240e-001	-2.851615e+001
2052652633	-1.999479e-001	-2.829161e+001
2052802640	-1.409837e-001	-2.870112e+001
2052952648	-1.481990e-001	-2.855532e+001
2053102655	-1.831759e-001	-2.848947e+001
2053252663	-1.848370e-001	-2.855112e+001
2053402670	-1.635784e-001	-2.860701e+001
2053552678	-2.881014e-001	-2.855776e+001
2053702685	-1.526026e-001	-2.865171e+001
2053852693	-1.487987e-001	-2.876343e+001
2054002700	-2.674962e-001	-2.853058e+001
2054152708	-1.388064e-001	-2.888037e+001
2054302715	-1.938907e-001	-2.852571e+001
2054452723	-2.412124e-001	-2.831514e+001
2054602730	-2.553572e-001	-2.836872e+001
2054752738	-2.620549e-001	-2.847626e+001
2054902745	-1.420606e-001	-2.886473e+001
2055052753	-2.392759e-001	-2.864177e+001
2055202760	-2.351927e-001	-2.865869e+001
2055352768	-1.413429e-001	-2.893848e+001
2055502775	-1.891185e-001	-2.869968e+001
2055652783	-2.902315e-001	-2.860038e+001
2055802790	-1.689024e-001	-2.860035e+001
2055952798	-2.098615e-001	-2.841946e+001
2056102805	-1.564317e-001	-2.866378e+001
2056252813	-2.547325e-001	-2.838477e+001
2056402820	-1.704107e-001	-2.848034e+001
2056552828	-1.683009e-001	-2.855849e+001
2056702835	-2.600675e-001	-2.849434e+001
2056852843	-2.724698e-001	-2.859035e+001
2057002850	-1.378989e-001	-2.885033e+001
2057152858	-2.153143e-001	-2.858891e+001
2057302865	-2.263747e-001	-2.858995e+001
2057452873	-1.442044e-001	-2.889869e+001
2057602880	-2.958014e-001	-2.866311e+001
2057752888	-1.679241e-001	-2.868593e+001
2057902895	-2.620658e-001	-2.854895e+001
2058052903	-2.987357e-001	-2.868639e+001
2058202910	-1.707498e-001	-2.867690e+001
2058352918	-2.671821e-001	-2.867166e+001
2058502925	-2.141021e-001	-2.868324e+001
2058652933	-1.494734e-001	-2.883755e+001
2058802940	-2.894366e-001	-2.863312e+001
2058952948	-2.802682e-001	-2.864819e+001
2059102955	-2.027203e-001	-2.869545e+001
2059252963	-2.980885e-001	-2.869517e+001
2059402970	-2.125727e-001	-2.848394e+001
2059552978	-2.857810e-001	-2.859869e+001
2059702985	-2.801265e-001	-2.857553e+001
2059852993	-2.144331e-001	-2.858020e+001
2060003000	-2.499271e-001	-2.864294e+001
2060153008	-2.708089e-001	-2.857320e+001
2060303015	-1.530408e-001	-2.861929e+001
2060453023	-2.398835e-001	-2.849548e+001
2060603030	-2.236918e-001	-2.869200e+001
2060753038	-1.582075e-001	-2.888186e+001
2060903045	-2.961658e-001	-2.870886e+001
2061053053	-1.570066e-001	-2.870664e+001
2061203060	-2.649475e-001	-2.863447e+001
2061353068	-2.804969e-001	-2.864792e+001
2061503075	-1.414739e-001	-2.890622e+001
2061653083	-2.881012e-001	-2.870062e+001
2061803090	-2.004436e-001	-2.881323e+001
2061953098	-1.525519e-001	-2.890189e+001
2062103105	-2.959246e-001	-2.872227e+001
2062253113	-2.580974e-001	-2.863948e+001
2062403120	-1.976590e-001	-2.866239e+001
2062553128	-2.928509e-001	-2.869577e+001
2062703135	-1.961339e-001	-2.848765e+001
2062853143	-2.882847e-001	-2.864083e+001
2063003150	-2.908477e-001	-2.865282e+001
2063153158	-1.466952e-001	-2.884779e+001
2063303165	-2.713269e-001	-2.869023e+001
2063453173	-2.301376e-001	-2.872150e+001
2063603180	-1.401775e-001	-2.887412e+001
2063753188	-2.273997e-001	-2.857969e+001
2063903195	-2.018485e-001	-2.868220e+001
2064053203	-1.393429e-001	-2.903931e+001
2064203210	-2.741849e-001	-2.863476e+001
2064353218	-1.672978e-001	-2.862280e+001
2064503225	-2.527887e-001	-2.864213e+001
2064653233	-2.885225e-001	-2.873104e+001
2064803240	-1.476162e-001	-2.888083e+001
2064953248	-2.589292e-001	-2.856729e+001
2065103255	-1.707333e-001	-2.889552e+001
2065253263	-1.893368e-001	-2.889853e+001
2065403270	-3.011730e-001	-2.879977e+001
2065553278	-2.209650e-001	-2.873781e+001
2065703285	-2.093405e-001	-2.881113e+001
2065853293	-2.760630e-001	-2.870399e+001
2066003300	-1.674369e-001	-2.867608e+001
2066153308	-2.907534e-001	-2.869853e+001
2066303315	-2.142646e-001	-2.848009e+001
2066453323	-1.607621e-001	-2.876795e+001
2066603330	-2.978768e-001	-2.879921e+001
2066753338	-1.974064e-001	-2.882683e+001
2066903345	-2.431790e-001	-2.855556e+001
2067053353	-2.491546e-001	-2.863744e+001
2067203360	-1.508812e-001	-2.884153e+001
2067353368	-1.603262e-001	-2.889982e+001
2067503375	-2.660227e-001	-2.876874e+001
2067653383	-1.384008e-001	-2.908123e+001
2067803390	-2.542537e-001	-2.871759e+001
2067953398	-2.715360e-001	-2.874088e+001
2068103405	-1.384406e-001	-2.906085e+001
2068253413	-2.298041e-001	-2.869247e+001
2068403420	-1.622543e-001	-2.891693e+001
2068553428	-2.014917e-001	-2.888663e+001
2068703435	-3.012981e-001	-2.885034e+001
2068853443	-1.925048e-001	-2.874147e+001
2069003450	-2.266518e-001	-2.886830e+001
2069153458	-2.957460e-001	-2.882049e+001
2069303465	-1.562486e-001	-2.872763e+001
2069453473	-1.579209e-001	-2.870002e+001
2069603480	-2.934649e-001	-2.882011e+001
2069753488	-1.901361e-001	-2.872986e+001
2069903495	-2.913091e-001	-2.880893e+001
2070053503	-2.374064e-001	-2.878825e+001
2070203510	-2.215681e-001	-2.873543e+001
2070353518	-2.977573e-001	-2.885522e+001
2070503525	-2.191884e-001	-2.874644e+001
2070653533	-1.387870e-001	-2.911080e+001
2070803540	-2.798836e-001	-2.873692e+001
2070953548	-1.971732e-001	-2.857938e+001
2071103555	-2.764579e-001	-2.867276e+001
2071253563	-2.624738e-001	-2.876582e+001
2071403570	-1.461023e-001	-2.890862e+001
2071553578	-2.870814e-001	-2.877337e+001
2071703585	-1.553161e-001	-2.901111e+001
2071853593	-2.401144e-001	-2.885609e+001
