!Agilent Technologies,N5230A,MY45000988,A.06.04.32
!Agilent N5230A: A.06.04.32
!Date: Saturday, August 17, 2019 19:29:45
!Correction: S11(Full 2 Port(1,2)) S21(Full 2 Port(1,2)) S12(Full 2 Port(1,2)) S22(Full 2 Port(1,2)) 
!S2P File: Measurements: S11, S21, S12, S22:
# Hz S  RI   R 50
80000000 9.979275e-001 -5.679253e-003 3.123019e-004 4.588852e-003 1.982969e-004 4.606131e-003 9.976110e-001 -6.491521e-003
80003750 9.974880e-001 -5.587751e-003 2.132442e-004 4.562632e-003 2.051003e-004 4.717925e-003 9.973109e-001 -6.417350e-003
80007500 9.974706e-001 -6.099692e-003 1.766728e-004 4.600337e-003 2.083011e-004 4.706724e-003 9.977376e-001 -6.872488e-003
80011250 9.975910e-001 -5.870124e-003 2.558080e-004 4.679620e-003 1.852783e-004 4.635053e-003 9.976804e-001 -6.864140e-003
80015000 9.976696e-001 -5.626406e-003 2.174664e-004 4.613898e-003 2.679801e-004 4.575200e-003 9.976539e-001 -6.541112e-003
80018750 9.971501e-001 -5.206680e-003 2.758662e-004 4.643423e-003 1.634386e-004 4.656410e-003 9.975370e-001 -6.408268e-003
80022500 9.975044e-001 -6.066268e-003 2.322131e-004 4.673688e-003 1.954553e-004 4.659822e-003 9.976702e-001 -6.760068e-003
80026250 9.976748e-001 -5.894498e-003 1.849426e-004 4.631306e-003 2.437655e-004 4.564437e-003 9.973418e-001 -6.618144e-003
80030000 9.974176e-001 -5.972315e-003 1.415616e-004 4.589157e-003 2.343712e-004 4.769384e-003 9.974145e-001 -6.649927e-003
80033750 9.973834e-001 -5.460772e-003 2.302591e-004 4.643633e-003 1.236586e-004 4.612180e-003 9.975967e-001 -6.554782e-003
80037500 9.974644e-001 -5.932439e-003 2.711941e-004 4.647337e-003 2.200834e-004 4.669455e-003 9.973201e-001 -6.414609e-003
80041250 9.975467e-001 -5.941413e-003 1.592100e-004 4.605271e-003 1.432661e-004 4.616418e-003 9.978159e-001 -6.364526e-003
80045000 9.973897e-001 -5.534704e-003 1.161192e-004 4.706409e-003 2.765500e-004 4.651871e-003 9.974458e-001 -6.479738e-003
80048750 9.974251e-001 -5.727901e-003 1.695513e-004 4.599523e-003 2.061368e-004 4.629258e-003 9.974249e-001 -6.722116e-003
80052500 9.974893e-001 -5.776033e-003 2.319786e-004 4.603158e-003 2.033091e-004 4.564540e-003 9.974688e-001 -6.466748e-003
80056250 9.974961e-001 -5.945151e-003 1.584245e-004 4.666327e-003 1.483191e-004 4.617206e-003 9.973596e-001 -6.383302e-003
80060000 9.977781e-001 -5.922304e-003 2.125094e-004 4.590559e-003 2.159784e-004 4.727545e-003 9.972175e-001 -6.404436e-003
80063750 9.975858e-001 -5.868076e-003 2.320184e-004 4.518450e-003 1.298571e-004 4.598736e-003 9.978467e-001 -6.664614e-003
80067500 9.974134e-001 -5.849639e-003 1.741232e-004 4.563599e-003 2.462979e-004 4.603012e-003 9.974870e-001 -6.269986e-003
80071250 9.977534e-001 -5.798088e-003 1.820536e-004 4.755184e-003 2.480966e-004 4.708741e-003 9.973975e-001 -6.279971e-003
80075000 9.978205e-001 -5.867089e-003 2.059400e-004 4.504979e-003 2.307535e-004 4.657098e-003 9.976267e-001 -6.255969e-003
80078750 9.973705e-001 -5.697891e-003 2.824502e-004 4.612963e-003 2.169969e-004 4.694526e-003 9.972284e-001 -6.405504e-003
80082500 9.974170e-001 -5.758447e-003 2.467706e-004 4.662144e-003 2.990590e-004 4.700046e-003 9.978195e-001 -6.425074e-003
80086250 9.972882e-001 -5.944835e-003 1.981902e-004 4.642874e-003 1.530613e-004 4.574378e-003 9.975398e-001 -6.455515e-003
80090000 9.973571e-001 -5.685872e-003 3.379483e-004 4.703040e-003 2.630351e-004 4.647153e-003 9.974880e-001 -6.753575e-003
80093750 9.975339e-001 -5.528502e-003 1.640200e-004 4.659758e-003 2.075900e-004 4.664382e-003 9.976371e-001 -6.532474e-003
80097500 9.973716e-001 -5.719902e-003 2.326227e-004 4.555678e-003 1.762515e-004 4.611012e-003 9.976388e-001 -6.464633e-003
80101250 9.973679e-001 -5.704729e-003 2.622312e-004 4.643861e-003 2.184902e-004 4.619729e-003 9.975207e-001 -6.557176e-003
80105000 9.974880e-001 -5.626445e-003 1.934833e-004 4.551640e-003 2.858243e-004 4.547526e-003 9.976292e-001 -6.615726e-003
80108750 9.972703e-001 -5.642354e-003 2.618195e-004 4.625049e-003 2.192960e-004 4.719163e-003 9.976276e-001 -6.609306e-003
80112500 9.973302e-001 -5.719543e-003 2.435945e-004 4.556732e-003 2.167010e-004 4.591030e-003 9.973211e-001 -6.714779e-003
80116250 9.972295e-001 -5.497387e-003 2.036948e-004 4.615100e-003 2.995340e-004 4.634238e-003 9.976882e-001 -6.482631e-003
80120000 9.976336e-001 -5.555157e-003 2.592843e-004 4.650280e-003 2.827187e-004 4.689329e-003 9.972194e-001 -6.668726e-003
80123750 9.975796e-001 -5.935639e-003 2.165789e-004 4.566868e-003 1.219975e-004 4.608934e-003 9.975793e-001 -6.762966e-003
80127500 9.974294e-001 -5.919022e-003 2.790094e-004 4.612000e-003 2.637755e-004 4.589688e-003 9.974400e-001 -6.656811e-003
80131250 9.976275e-001 -5.684230e-003 2.589182e-004 4.703538e-003 2.048350e-004 4.604771e-003 9.973096e-001 -6.680993e-003
80135000 9.975910e-001 -5.941006e-003 1.627995e-004 4.667949e-003 2.672717e-004 4.641363e-003 9.977028e-001 -6.520085e-003
80138750 9.975280e-001 -6.226260e-003 2.765999e-004 4.697422e-003 3.047880e-004 4.508925e-003 9.974619e-001 -6.567217e-003
80142500 9.974352e-001 -5.561316e-003 2.287893e-004 4.612283e-003 2.034088e-004 4.586793e-003 9.975662e-001 -6.471463e-003
80146250 9.975547e-001 -5.672404e-003 2.840647e-004 4.658867e-003 2.399469e-004 4.603774e-003 9.975668e-001 -6.491860e-003
80150000 9.975009e-001 -5.434192e-003 2.371831e-004 4.646354e-003 2.562842e-004 4.682959e-003 9.973312e-001 -6.500241e-003
80153750 9.975587e-001 -5.614669e-003 3.318572e-004 4.614911e-003 3.163232e-004 4.711967e-003 9.973354e-001 -6.508437e-003
80157500 9.972585e-001 -5.711544e-003 2.394874e-004 4.733383e-003 2.806181e-004 4.681360e-003 9.974163e-001 -6.399038e-003
80161250 9.971121e-001 -5.736656e-003 2.622646e-004 4.654378e-003 1.554436e-004 4.622757e-003 9.973485e-001 -6.515235e-003
80165000 9.974340e-001 -5.835267e-003 2.390085e-004 4.648834e-003 2.312969e-004 4.711405e-003 9.974009e-001 -6.277622e-003
80168750 9.974249e-001 -5.532666e-003 2.136411e-004 4.612169e-003 1.666770e-004 4.614426e-003 9.974894e-001 -6.373796e-003
80172500 9.973869e-001 -5.750726e-003 3.080883e-004 4.597013e-003 2.053746e-004 4.594015e-003 9.975991e-001 -6.800460e-003
80176250 9.971919e-001 -5.973113e-003 2.555837e-004 4.597676e-003 2.702223e-004 4.615445e-003 9.974911e-001 -6.576393e-003
80180000 9.974216e-001 -5.359406e-003 1.165817e-004 4.574397e-003 2.553664e-004 4.611885e-003 9.973006e-001 -6.874856e-003
80183750 9.974362e-001 -5.767015e-003 1.796486e-004 4.669946e-003 3.489694e-004 4.684129e-003 9.976397e-001 -6.304547e-003
80187500 9.975590e-001 -5.594078e-003 3.500991e-004 4.585967e-003 3.127554e-004 4.587153e-003 9.971985e-001 -6.857281e-003
80191250 9.970459e-001 -5.595739e-003 3.052716e-004 4.636568e-003 2.613121e-004 4.583462e-003 9.973314e-001 -6.356765e-003
80195000 9.975333e-001 -6.059682e-003 2.879535e-004 4.663289e-003 3.517335e-004 4.699117e-003 9.974730e-001 -6.134985e-003
80198750 9.972817e-001 -5.774483e-003 2.912105e-004 4.566617e-003 2.899422e-004 4.634618e-003 9.975483e-001 -6.409094e-003
80202500 9.973617e-001 -5.852494e-003 2.734838e-004 4.539805e-003 2.730589e-004 4.630881e-003 9.972782e-001 -6.482027e-003
80206250 9.971791e-001 -5.714152e-003 3.825712e-004 4.574910e-003 3.406131e-004 4.645406e-003 9.971811e-001 -6.477026e-003
80210000 9.975191e-001 -5.453005e-003 3.196323e-004 4.534708e-003 2.080736e-004 4.576156e-003 9.974035e-001 -6.383145e-003
80213750 9.974736e-001 -5.614171e-003 2.812002e-004 4.543135e-003 3.238550e-004 4.580164e-003 9.973424e-001 -6.496974e-003
80217500 9.973596e-001 -5.478953e-003 3.047545e-004 4.582697e-003 3.373492e-004 4.512803e-003 9.976833e-001 -6.523118e-003
80221250 9.971216e-001 -5.724712e-003 3.318177e-004 4.519331e-003 2.819227e-004 4.625626e-003 9.975185e-001 -6.309501e-003
80225000 9.974763e-001 -5.502816e-003 2.191230e-004 4.620219e-003 2.582458e-004 4.646464e-003 9.979342e-001 -6.706225e-003
80228750 9.975020e-001 -5.189800e-003 2.699946e-004 4.543880e-003 2.744969e-004 4.556175e-003 9.973350e-001 -6.437277e-003
80232500 9.971803e-001 -5.487626e-003 2.660255e-004 4.550450e-003 2.731208e-004 4.563777e-003 9.975476e-001 -6.183929e-003
80236250 9.974033e-001 -5.763035e-003 2.626752e-004 4.559751e-003 2.795731e-004 4.598449e-003 9.974427e-001 -6.489102e-003
80240000 9.975106e-001 -5.900358e-003 3.270385e-004 4.579340e-003 3.394661e-004 4.615840e-003 9.973407e-001 -6.410034e-003
80243750 9.973755e-001 -5.498250e-003 2.454543e-004 4.600020e-003 2.625528e-004 4.654322e-003 9.977243e-001 -6.394726e-003
80247500 9.974475e-001 -5.808480e-003 2.442361e-004 4.669407e-003 2.444636e-004 4.547743e-003 9.975517e-001 -6.372167e-003
80251250 9.972078e-001 -5.687451e-003 2.675116e-004 4.639500e-003 2.061309e-004 4.605226e-003 9.973084e-001 -6.409269e-003
80255000 9.972804e-001 -5.481478e-003 2.950442e-004 4.630131e-003 2.468363e-004 4.597831e-003 9.977473e-001 -6.504531e-003
80258750 9.973147e-001 -5.796767e-003 3.157582e-004 4.443270e-003 2.541991e-004 4.550077e-003 9.975136e-001 -6.540156e-003
80262500 9.973347e-001 -5.681664e-003 3.013499e-004 4.560903e-003 3.031690e-004 4.625478e-003 9.975181e-001 -6.880211e-003
80266250 9.974787e-001 -5.893756e-003 2.419048e-004 4.598807e-003 3.320344e-004 4.562763e-003 9.974658e-001 -6.244712e-003
80270000 9.973257e-001 -5.743655e-003 2.560458e-004 4.526399e-003 2.288798e-004 4.573890e-003 9.974948e-001 -6.867595e-003
80273750 9.973573e-001 -5.631451e-003 3.426568e-004 4.680946e-003 2.755414e-004 4.525032e-003 9.972702e-001 -6.305412e-003
80277500 9.976528e-001 -5.654509e-003 3.794916e-004 4.507167e-003 2.938946e-004 4.591994e-003 9.973788e-001 -6.485467e-003
80281250 9.974437e-001 -5.416496e-003 3.081942e-004 4.598118e-003 3.012795e-004 4.562992e-003 9.978203e-001 -6.437489e-003
80285000 9.973091e-001 -5.367141e-003 3.752680e-004 4.615985e-003 3.543714e-004 4.506506e-003 9.972338e-001 -6.212618e-003
80288750 9.972132e-001 -5.669904e-003 2.773161e-004 4.528009e-003 2.476824e-004 4.519854e-003 9.974825e-001 -6.336672e-003
80292500 9.974204e-001 -5.703839e-003 3.042435e-004 4.524847e-003 2.428668e-004 4.599223e-003 9.973186e-001 -6.293486e-003
80296250 9.975278e-001 -5.598761e-003 2.606150e-004 4.608664e-003 2.641548e-004 4.524319e-003 9.975975e-001 -6.487580e-003
80300000 9.974967e-001 -5.625437e-003 3.535300e-004 4.573255e-003 3.138429e-004 4.473661e-003 9.973402e-001 -6.593157e-003
80303750 9.975546e-001 -5.626808e-003 2.878364e-004 4.522225e-003 1.923487e-004 4.503354e-003 9.974933e-001 -6.489797e-003
80307500 9.972901e-001 -5.493077e-003 3.195665e-004 4.565598e-003 3.266331e-004 4.580861e-003 9.971437e-001 -6.622356e-003
80311250 9.974506e-001 -5.501764e-003 3.446319e-004 4.534655e-003 2.367843e-004 4.513409e-003 9.975547e-001 -6.496686e-003
80315000 9.974290e-001 -5.408192e-003 2.648041e-004 4.541698e-003 2.895283e-004 4.566753e-003 9.978494e-001 -6.547414e-003
80318750 9.972445e-001 -5.324556e-003 2.857443e-004 4.497943e-003 1.949147e-004 4.533043e-003 9.974995e-001 -6.410741e-003
80322500 9.973806e-001 -5.669451e-003 3.367449e-004 4.584592e-003 2.874923e-004 4.567715e-003 9.974977e-001 -6.354033e-003
80326250 9.973842e-001 -5.519376e-003 3.272090e-004 4.531885e-003 2.782402e-004 4.523384e-003 9.972188e-001 -6.188775e-003
80330000 9.972427e-001 -5.416637e-003 2.623614e-004 4.574399e-003 2.979233e-004 4.546579e-003 9.976149e-001 -6.349957e-003
80333750 9.975548e-001 -5.640797e-003 2.840572e-004 4.543394e-003 3.265660e-004 4.482526e-003 9.976391e-001 -6.434607e-003
80337500 9.974086e-001 -5.604053e-003 2.442507e-004 4.589288e-003 2.797588e-004 4.528220e-003 9.971901e-001 -6.211590e-003
80341250 9.971218e-001 -5.241683e-003 3.286191e-004 4.415406e-003 2.670923e-004 4.470001e-003 9.972148e-001 -6.205581e-003
80345000 9.971094e-001 -5.849940e-003 2.658075e-004 4.482060e-003 2.843464e-004 4.516700e-003 9.972967e-001 -6.626193e-003
80348750 9.976302e-001 -5.199966e-003 3.070551e-004 4.468965e-003 1.527199e-004 4.503147e-003 9.973512e-001 -6.744282e-003
80352500 9.971493e-001 -5.574638e-003 2.319937e-004 4.393421e-003 2.522164e-004 4.449752e-003 9.975541e-001 -6.246822e-003
80356250 9.972497e-001 -5.421592e-003 2.048536e-004 4.567152e-003 2.332538e-004 4.510605e-003 9.974026e-001 -6.586471e-003
80360000 9.970730e-001 -5.494050e-003 1.272226e-004 4.487424e-003 2.747070e-004 4.491153e-003 9.975408e-001 -5.942387e-003
80363750 9.976537e-001 -5.727324e-003 2.979839e-004 4.526485e-003 2.581235e-004 4.447552e-003 9.976332e-001 -6.201577e-003
80367500 9.974259e-001 -5.679088e-003 3.006718e-004 4.461304e-003 2.253854e-004 4.486954e-003 9.974332e-001 -5.930989e-003
80371250 9.975958e-001 -5.478235e-003 2.981273e-004 4.477693e-003 2.582261e-004 4.436973e-003 9.971985e-001 -6.490753e-003
80375000 9.974369e-001 -5.460642e-003 3.795106e-004 4.445989e-003 2.507442e-004 4.561768e-003 9.971933e-001 -6.282380e-003
80378750 9.974781e-001 -5.537780e-003 1.990256e-004 4.418786e-003 2.532532e-004 4.415863e-003 9.975979e-001 -6.439962e-003
80382500 9.972406e-001 -5.421874e-003 2.175311e-004 4.509414e-003 2.384644e-004 4.508465e-003 9.972853e-001 -6.102060e-003
80386250 9.975384e-001 -5.468767e-003 2.189699e-004 4.541765e-003 2.614042e-004 4.537241e-003 9.973697e-001 -6.433036e-003
80390000 9.973291e-001 -5.384634e-003 2.208889e-004 4.389340e-003 2.365914e-004 4.487802e-003 9.974900e-001 -6.407335e-003
80393750 9.970869e-001 -5.634640e-003 1.829927e-004 4.543587e-003 2.472021e-004 4.535925e-003 9.975541e-001 -6.321400e-003
80397500 9.973511e-001 -5.354896e-003 3.383814e-004 4.468881e-003 1.581367e-004 4.518909e-003 9.974765e-001 -6.367658e-003
80401250 9.976755e-001 -5.632209e-003 2.693331e-004 4.504506e-003 2.845724e-004 4.441472e-003 9.971757e-001 -6.512919e-003
80405000 9.975246e-001 -5.284092e-003 2.545064e-004 4.488702e-003 1.880451e-004 4.602342e-003 9.973208e-001 -6.219377e-003
80408750 9.971740e-001 -5.650788e-003 1.790131e-004 4.421141e-003 1.521674e-004 4.505723e-003 9.976170e-001 -6.559374e-003
80412500 9.974225e-001 -5.365542e-003 2.066298e-004 4.548557e-003 2.076174e-004 4.458651e-003 9.976717e-001 -6.126958e-003
80416250 9.973819e-001 -5.674514e-003 2.819473e-004 4.473972e-003 2.567236e-004 4.519595e-003 9.973598e-001 -6.113130e-003
80420000 9.975609e-001 -5.328742e-003 2.455848e-004 4.487514e-003 3.189316e-004 4.510255e-003 9.973839e-001 -6.267652e-003
80423750 9.971950e-001 -5.709609e-003 2.678146e-004 4.497741e-003 1.833704e-004 4.372363e-003 9.977472e-001 -6.515591e-003
80427500 9.977170e-001 -5.154048e-003 2.625024e-004 4.423077e-003 2.288505e-004 4.431624e-003 9.974750e-001 -6.585170e-003
80431250 9.971045e-001 -5.403810e-003 2.179023e-004 4.482385e-003 2.781210e-004 4.426498e-003 9.977176e-001 -6.126833e-003
80435000 9.975446e-001 -5.631471e-003 2.115269e-004 4.537317e-003 2.232526e-004 4.514001e-003 9.976862e-001 -6.524683e-003
80438750 9.974050e-001 -5.443383e-003 2.142666e-004 4.460258e-003 2.910464e-004 4.438711e-003 9.977109e-001 -6.789408e-003
80442500 9.975410e-001 -5.748352e-003 1.845893e-004 4.550956e-003 2.282412e-004 4.480632e-003 9.976121e-001 -5.932463e-003
80446250 9.973551e-001 -5.531934e-003 2.376584e-004 4.533079e-003 2.300661e-004 4.557976e-003 9.970177e-001 -6.199179e-003
80450000 9.972112e-001 -5.571360e-003 2.196104e-004 4.567704e-003 2.300583e-004 4.437046e-003 9.971718e-001 -6.374180e-003
80453750 9.972813e-001 -5.644477e-003 1.306612e-004 4.561541e-003 1.925767e-004 4.324522e-003 9.973006e-001 -6.362687e-003
80457500 9.973714e-001 -5.213335e-003 2.352007e-004 4.457285e-003 2.197846e-004 4.433772e-003 9.976230e-001 -6.587453e-003
80461250 9.976084e-001 -5.426501e-003 2.232534e-004 4.461500e-003 1.789848e-004 4.445970e-003 9.975370e-001 -6.496096e-003
80465000 9.975276e-001 -5.606277e-003 1.320737e-004 4.444967e-003 1.971045e-004 4.537588e-003 9.977263e-001 -6.008536e-003
80468750 9.973102e-001 -5.484928e-003 2.620921e-004 4.449502e-003 2.203834e-004 4.480715e-003 9.973449e-001 -6.213512e-003
80472500 9.974595e-001 -5.387467e-003 1.789760e-004 4.361872e-003 2.001096e-004 4.472047e-003 9.975007e-001 -6.457053e-003
80476250 9.971976e-001 -5.283494e-003 1.113619e-004 4.414642e-003 2.643744e-004 4.531559e-003 9.974123e-001 -6.049083e-003
80480000 9.975417e-001 -5.758497e-003 2.071869e-004 4.400220e-003 2.385531e-004 4.514792e-003 9.972863e-001 -6.413702e-003
80483750 9.975069e-001 -5.356008e-003 1.522421e-004 4.385136e-003 2.016148e-004 4.462267e-003 9.974383e-001 -6.036497e-003
80487500 9.973873e-001 -5.604906e-003 1.774095e-004 4.442363e-003 2.170365e-004 4.459633e-003 9.973758e-001 -6.581898e-003
80491250 9.973125e-001 -5.515756e-003 2.217627e-004 4.441091e-003 1.560092e-004 4.545214e-003 9.978917e-001 -5.975141e-003
80495000 9.976533e-001 -5.132929e-003 1.673582e-004 4.446809e-003 1.223658e-004 4.443975e-003 9.977621e-001 -6.008442e-003
80498750 9.974404e-001 -5.418686e-003 2.221023e-004 4.461849e-003 9.862581e-005 4.482245e-003 9.974459e-001 -6.406774e-003
80502500 9.975820e-001 -5.656344e-003 1.382233e-004 4.494875e-003 1.670977e-004 4.401574e-003 9.974468e-001 -6.265777e-003
80506250 9.974381e-001 -5.414831e-003 1.193474e-004 4.464117e-003 1.291494e-004 4.535019e-003 9.974031e-001 -6.544192e-003
80510000 9.974574e-001 -5.277859e-003 9.554949e-005 4.402915e-003 2.134619e-004 4.477658e-003 9.972965e-001 -6.187300e-003
80513750 9.975995e-001 -5.257877e-003 1.295313e-004 4.435344e-003 2.198213e-004 4.510691e-003 9.974629e-001 -6.402992e-003
80517500 9.977847e-001 -5.420334e-003 1.680253e-004 4.472075e-003 1.811376e-004 4.496841e-003 9.973056e-001 -6.239778e-003
80521250 9.977408e-001 -5.663418e-003 9.160623e-005 4.472195e-003 2.017387e-004 4.420770e-003 9.973714e-001 -6.126760e-003
80525000 9.972363e-001 -5.634580e-003 1.516685e-004 4.421114e-003 9.481348e-005 4.413509e-003 9.974943e-001 -6.208367e-003
80528750 9.974789e-001 -5.278793e-003 1.440595e-004 4.462963e-003 8.424080e-005 4.513161e-003 9.974149e-001 -6.526944e-003
80532500 9.972315e-001 -5.476675e-003 1.452784e-004 4.548507e-003 1.035621e-004 4.383824e-003 9.974236e-001 -5.980821e-003
80536250 9.974748e-001 -5.669181e-003 1.795682e-004 4.442645e-003 1.638917e-004 4.510554e-003 9.973587e-001 -6.329851e-003
80540000 9.975886e-001 -5.675890e-003 1.778333e-004 4.392615e-003 9.413884e-005 4.470124e-003 9.974195e-001 -6.209633e-003
80543750 9.971988e-001 -5.295329e-003 1.157564e-004 4.588757e-003 5.110067e-005 4.529545e-003 9.975477e-001 -6.219331e-003
80547500 9.973901e-001 -5.453565e-003 1.703232e-004 4.494305e-003 4.575032e-005 4.503437e-003 9.971752e-001 -6.384458e-003
80551250 9.973807e-001 -5.188211e-003 2.551559e-005 4.446506e-003 1.564904e-004 4.532644e-003 9.975129e-001 -6.451650e-003
80555000 9.972419e-001 -5.243775e-003 5.275978e-005 4.475132e-003 1.811530e-004 4.416449e-003 9.978319e-001 -6.222432e-003
80558750 9.973511e-001 -5.412266e-003 2.249072e-005 4.512348e-003 3.559315e-005 4.467427e-003 9.978071e-001 -6.488880e-003
80562500 9.973451e-001 -5.751031e-003 8.599849e-005 4.446009e-003 1.593073e-004 4.494067e-003 9.974182e-001 -6.088719e-003
80566250 9.976976e-001 -5.113831e-003 1.127100e-004 4.477164e-003 2.707679e-004 4.466531e-003 9.975541e-001 -6.204938e-003
80570000 9.975761e-001 -5.503156e-003 8.030587e-005 4.455945e-003 6.206270e-005 4.561236e-003 9.975254e-001 -6.022160e-003
80573750 9.974509e-001 -5.531914e-003 4.800323e-005 4.598091e-003 1.437577e-004 4.522951e-003 9.975509e-001 -6.542359e-003
80577500 9.978768e-001 -5.414929e-003 -1.275459e-005 4.588509e-003 -3.055530e-006 4.447175e-003 9.975821e-001 -6.116714e-003
80581250 9.977880e-001 -5.451885e-003 1.816094e-004 4.442140e-003 1.727593e-004 4.588882e-003 9.974627e-001 -6.233877e-003
80585000 9.977008e-001 -5.438775e-003 7.282278e-005 4.479818e-003 1.498435e-004 4.503553e-003 9.974713e-001 -6.111346e-003
80588750 9.977110e-001 -5.521958e-003 4.222914e-005 4.563279e-003 1.557849e-004 4.482506e-003 9.975186e-001 -6.136496e-003
80592500 9.976613e-001 -5.589820e-003 7.667059e-005 4.555638e-003 8.315789e-005 4.439111e-003 9.975231e-001 -6.345877e-003
80596250 9.978586e-001 -5.359136e-003 2.030695e-005 4.520176e-003 9.278493e-005 4.579660e-003 9.977398e-001 -6.278443e-003
